! C0402C104K3PAC
! Temp = 25°C, Bias = 0VDC, Shunt
! KEMET S2P Model
# HZ S DB R 50
10000 -17.36332 -98.97369 -0.1050977 -7.783947 -0.1050977 -7.783947 -17.36332 -98.97369 
10471.29 -16.97737 -99.32916 -0.1137803 -8.139963 -0.1137803 -8.139963 -16.97737 -99.32916 
10964.78 -16.59218 -99.70041 -0.1232152 -8.511745 -0.1232152 -8.511745 -16.59218 -99.70041 
11481.54 -16.20781 -100.088 -0.1334668 -8.899928 -0.1334668 -8.899928 -16.20781 -100.088 
12022.64 -15.82434 -100.4928 -0.1446074 -9.305147 -0.1446074 -9.305147 -15.82434 -100.4928 
12589.25 -15.44183 -100.9151 -0.1567128 -9.728068 -0.1567128 -9.728068 -15.44183 -100.9151 
13182.56 -15.06037 -101.3559 -0.1698682 -10.16935 -0.1698682 -10.16935 -15.06037 -101.3559 
13803.84 -14.68006 -101.8158 -0.1841613 -10.6297 -0.1841613 -10.6297 -14.68006 -101.8158 
14454.39 -14.30098 -102.2954 -0.1996906 -11.10978 -0.1996906 -11.10978 -14.30098 -102.2954 
15135.61 -13.92325 -102.7954 -0.2165618 -11.6103 -0.2165618 -11.6103 -13.92325 -102.7954 
15848.92 -13.54698 -103.3166 -0.2348859 -12.13196 -0.2348859 -12.13196 -13.54698 -103.3166 
16595.86 -13.17229 -103.8597 -0.2547867 -12.67546 -0.2547867 -12.67546 -13.17229 -103.8597 
17378 -12.7993 -104.4253 -0.2763942 -13.24151 -0.2763942 -13.24151 -12.7993 -104.4253 
18197.02 -12.42816 -105.0142 -0.2998501 -13.83082 -0.2998501 -13.83082 -12.42816 -105.0142 
19054.62 -12.05903 -105.627 -0.3253015 -14.44403 -0.3253015 -14.44403 -12.05903 -105.627 
19952.63 -11.69206 -106.2644 -0.3529131 -15.08183 -0.3529131 -15.08183 -11.69206 -106.2644 
20892.97 -11.32743 -106.9271 -0.3828523 -15.74485 -0.3828523 -15.74485 -11.32743 -106.9271 
21877.62 -10.96531 -107.6156 -0.4153066 -16.43373 -0.4153066 -16.43373 -10.96531 -107.6156 
22908.68 -10.6059 -108.3306 -0.450469 -17.14902 -0.450469 -17.14902 -10.6059 -108.3306 
23988.34 -10.24941 -109.0725 -0.4885446 -17.89126 -0.4885446 -17.89126 -10.24941 -109.0725 
25118.87 -9.89605 -109.8419 -0.5297511 -18.66093 -0.5297511 -18.66093 -9.89605 -109.8419 
26302.68 -9.546057 -110.6391 -0.5743172 -19.45846 -0.5743172 -19.45846 -9.546057 -110.6391 
27542.29 -9.199667 -111.4646 -0.6224852 -20.28417 -0.6224852 -20.28417 -9.199667 -111.4646 
28840.32 -8.857135 -112.3185 -0.6745059 -21.13835 -0.6745059 -21.13835 -8.857135 -112.3185 
30199.52 -8.518721 -113.2011 -0.7306406 -22.02114 -0.7306406 -22.02114 -8.518721 -113.2011 
31622.78 -8.184696 -114.1124 -0.7911635 -22.93263 -0.7911635 -22.93263 -8.184696 -114.1124 
33113.11 -7.855344 -115.0524 -0.856353 -23.87277 -0.856353 -23.87277 -7.855344 -115.0524 
34673.68 -7.530951 -116.0208 -0.926499 -24.84137 -0.926499 -24.84137 -7.530951 -116.0208 
36307.8 -7.211811 -117.0175 -1.001895 -25.83814 -1.001895 -25.83814 -7.211811 -117.0175 
38018.93 -6.898226 -118.0419 -1.082843 -26.8626 -1.082843 -26.8626 -6.898226 -118.0419 
39810.71 -6.590495 -119.0934 -1.16964 -27.91415 -1.16964 -27.91415 -6.590495 -119.0934 
41686.93 -6.288918 -120.1712 -1.262588 -28.99202 -1.262588 -28.99202 -6.288918 -120.1712 
43651.57 -5.993796 -121.2745 -1.361989 -30.09525 -1.361989 -30.09525 -5.993796 -121.2745 
45708.8 -5.705424 -122.402 -1.468134 -31.22273 -1.468134 -31.22273 -5.705424 -122.402 
47862.99 -5.424083 -123.5526 -1.581308 -32.37317 -1.581308 -32.37317 -5.424083 -123.5526 
50118.7 -5.150051 -124.7246 -1.701787 -33.54509 -1.701787 -33.54509 -5.150051 -124.7246 
52480.72 -4.883584 -125.9165 -1.829829 -34.73685 -1.829829 -34.73685 -4.883584 -125.9165 
54954.06 -4.624928 -127.1266 -1.965676 -35.94665 -1.965676 -35.94665 -4.624928 -127.1266 
57544.02 -4.374295 -128.3527 -2.109555 -37.17253 -2.109555 -37.17253 -4.374295 -128.3527 
60255.99 -4.131896 -129.5928 -2.261653 -38.41235 -2.261653 -38.41235 -4.131896 -129.5928 
63095.76 -3.897895 -130.8447 -2.422147 -39.66388 -2.422147 -39.66388 -3.897895 -130.8447 
66069.37 -3.672434 -132.106 -2.591177 -40.92476 -2.591177 -40.92476 -3.672434 -132.106 
69183.13 -3.455624 -133.3742 -2.768854 -42.19256 -2.768854 -42.19256 -3.455624 -133.3742 
72443.62 -3.24754 -134.6469 -2.955254 -43.46476 -2.955254 -43.46476 -3.24754 -134.6469 
75857.78 -3.048227 -135.9215 -3.150423 -44.7388 -3.150423 -44.7388 -3.048227 -135.9215 
79432.84 -2.857693 -137.1955 -3.354367 -46.01211 -3.354367 -46.01211 -2.857693 -137.1955 
83176.39 -2.675912 -138.4662 -3.567057 -47.2821 -3.567057 -47.2821 -2.675912 -138.4662 
87096.37 -2.50282 -139.7311 -3.788437 -48.54626 -3.788437 -48.54626 -2.50282 -139.7311 
91201.09 -2.338323 -140.9877 -4.018406 -49.8021 -4.018406 -49.8021 -2.338323 -140.9877 
95499.27 -2.182293 -142.2337 -4.256844 -51.04722 -4.256844 -51.04722 -2.182293 -142.2337 
100000 -2.034576 -143.4668 -4.503585 -52.27931 -4.503585 -52.27931 -2.034576 -143.4668 
104712.9 -1.894982 -144.6848 -4.758449 -53.4962 -4.758449 -53.4962 -1.894982 -144.6848 
109647.8 -1.763304 -145.8855 -5.021226 -54.69586 -5.021226 -54.69586 -1.763304 -145.8855 
114815.3 -1.639306 -147.0673 -5.291681 -55.87641 -5.291681 -55.87641 -1.639306 -147.0673 
120226.4 -1.522739 -148.2283 -5.569561 -57.0361 -5.569561 -57.0361 -1.522739 -148.2283 
125892.5 -1.413335 -149.367 -5.854603 -58.1734 -5.854603 -58.1734 -1.413335 -149.367 
131825.6 -1.310812 -150.482 -6.146521 -59.28691 -6.146521 -59.28691 -1.310812 -150.482 
138038.4 -1.21488 -151.5722 -6.445028 -60.37544 -6.445028 -60.37544 -1.21488 -151.5722 
144543.9 -1.125243 -152.6364 -6.749828 -61.43796 -6.749828 -61.43796 -1.125243 -152.6364 
151356.1 -1.041599 -153.6739 -7.060618 -62.4736 -7.060618 -62.4736 -1.041599 -153.6739 
158489.3 -0.9636488 -154.6839 -7.3771 -63.48169 -7.3771 -63.48169 -0.9636488 -154.6839 
165958.6 -0.8910893 -155.666 -7.698969 -64.46167 -7.698969 -64.46167 -0.8910893 -155.666 
173780 -0.823626 -156.6197 -8.02593 -65.41317 -8.02593 -65.41317 -0.823626 -156.6197 
181970.2 -0.7609647 -157.5448 -8.357702 -66.33598 -8.357702 -66.33598 -0.7609647 -157.5448 
190546.2 -0.7028232 -158.4413 -8.693983 -67.22993 -8.693983 -67.22993 -0.7028232 -158.4413 
199526.3 -0.6489252 -159.309 -9.034507 -68.09505 -9.034507 -68.09505 -0.6489252 -159.309 
208929.7 -0.5990009 -160.1482 -9.379002 -68.93147 -9.379002 -68.93147 -0.5990009 -160.1482 
218776.2 -0.552797 -160.9591 -9.727212 -69.73939 -9.727212 -69.73939 -0.552797 -160.9591 
229086.8 -0.5100657 -161.742 -10.07889 -70.5191 -10.07889 -70.5191 -0.5100657 -161.742 
239883.4 -0.4705721 -162.4972 -10.43382 -71.271 -10.43382 -71.271 -0.4705721 -162.4972 
251188.7 -0.4340928 -163.2252 -10.79175 -71.99554 -10.79175 -71.99554 -0.4340928 -163.2252 
263026.8 -0.4004169 -163.9265 -11.15248 -72.69319 -11.15248 -72.69319 -0.4004169 -163.9265 
275422.9 -0.3693452 -164.6018 -11.51583 -73.36452 -11.51583 -73.36452 -0.3693452 -164.6018 
288403.2 -0.3406897 -165.2515 -11.88158 -74.0101 -11.88158 -74.0101 -0.3406897 -165.2515 
301995.2 -0.3142709 -165.8763 -12.24958 -74.63058 -12.24958 -74.63058 -0.3142709 -165.8763 
316227.8 -0.2899249 -166.4769 -12.61964 -75.22659 -12.61964 -75.22659 -0.2899249 -166.4769 
331131.1 -0.2674952 -167.0539 -12.99162 -75.79879 -12.99162 -75.79879 -0.2674952 -167.0539 
346736.8 -0.2468377 -167.6081 -13.36539 -76.34786 -13.36539 -76.34786 -0.2468377 -167.6081 
363078 -0.2278176 -168.14 -13.74078 -76.87448 -13.74078 -76.87448 -0.2278176 -168.14 
380189.3 -0.210306 -168.6505 -14.11769 -77.37937 -14.11769 -77.37937 -0.210306 -168.6505 
398107.1 -0.1941892 -169.1403 -14.496 -77.86318 -14.496 -77.86318 -0.1941892 -169.1403 
416869.3 -0.1793552 -169.61 -14.87559 -78.32662 -14.87559 -78.32662 -0.1793552 -169.61 
436515.7 -0.1657063 -170.0603 -15.25638 -78.77036 -15.25638 -78.77036 -0.1657063 -170.0603 
457088 -0.1531474 -170.4919 -15.63826 -79.19506 -15.63826 -79.19506 -0.1531474 -170.4919 
478629.9 -0.1415921 -170.9055 -16.02115 -79.60143 -16.02115 -79.60143 -0.1415921 -170.9055 
501187 -0.1309599 -171.3018 -16.40497 -79.99006 -16.40497 -79.99006 -0.1309599 -171.3018 
524807.2 -0.121178 -171.6814 -16.78965 -80.36163 -16.78965 -80.36163 -0.121178 -171.6814 
549540.6 -0.112178 -172.0449 -17.17513 -80.71672 -17.17513 -80.71672 -0.112178 -172.0449 
575440.3 -0.1038972 -172.393 -17.56134 -81.05595 -17.56134 -81.05595 -0.1038972 -172.393 
602559.9 -0.0962776 -172.7262 -17.94822 -81.37989 -17.94822 -81.37989 -0.0962776 -172.7262 
630957.6 -0.08926567 -173.0452 -18.33572 -81.68911 -18.33572 -81.68911 -0.08926567 -173.0452 
660693.7 -0.08281185 -173.3506 -18.7238 -81.98417 -18.7238 -81.98417 -0.08281185 -173.3506 
691831.2 -0.07687102 -173.6428 -19.11241 -82.26559 -19.11241 -82.26559 -0.07687102 -173.6428 
724436.2 -0.07140352 -173.9224 -19.50151 -82.53387 -19.50151 -82.53387 -0.07140352 -173.9224 
758577.8 -0.06636931 -174.1899 -19.89107 -82.78951 -19.89107 -82.78951 -0.06636931 -174.1899 
794328.4 -0.0617322 -174.4458 -20.28106 -83.033 -20.28106 -83.033 -0.0617322 -174.4458 
831763.9 -0.05746132 -174.6907 -20.67143 -83.26475 -20.67143 -83.26475 -0.05746132 -174.6907 
870963.7 -0.05352696 -174.9249 -21.06218 -83.48524 -21.06218 -83.48524 -0.05352696 -174.9249 
912010.9 -0.04990212 -175.1489 -21.45328 -83.69485 -21.45328 -83.69485 -0.04990212 -175.1489 
954992.6 -0.04656089 -175.3632 -21.84469 -83.894 -21.84469 -83.894 -0.04656089 -175.3632 
1000000 -0.04348111 -175.5681 -22.23641 -84.08306 -22.23641 -84.08306 -0.04348111 -175.5681 
1047129 -0.04064064 -175.7641 -22.62843 -84.2624 -22.62843 -84.2624 -0.04064064 -175.7641 
1096478 -0.03802053 -175.9515 -23.02071 -84.43234 -23.02071 -84.43234 -0.03802053 -175.9515 
1148154 -0.03560395 -176.1307 -23.41326 -84.59325 -23.41326 -84.59325 -0.03560395 -176.1307 
1202264 -0.03337254 -176.302 -23.80606 -84.74541 -23.80606 -84.74541 -0.03337254 -176.302 
1258925 -0.03131264 -176.4659 -24.1991 -84.88911 -24.1991 -84.88911 -0.03131264 -176.4659 
1318256 -0.02941012 -176.6226 -24.59238 -85.02467 -24.59238 -85.02467 -0.02941012 -176.6226 
1380384 -0.02765291 -176.7724 -24.9859 -85.15233 -24.9859 -85.15233 -0.02765291 -176.7724 
1445439 -0.02602951 -176.9156 -25.37965 -85.27232 -25.37965 -85.27232 -0.02602951 -176.9156 
1513561 -0.02452894 -177.0525 -25.77363 -85.3849 -25.77363 -85.3849 -0.02452894 -177.0525 
1584893 -0.02314024 -177.1835 -26.16783 -85.49028 -26.16783 -85.49028 -0.02314024 -177.1835 
1659586 -0.02185504 -177.3086 -26.56227 -85.58868 -26.56227 -85.58868 -0.02185504 -177.3086 
1737800 -0.02066655 -177.4283 -26.95695 -85.68026 -26.95695 -85.68026 -0.02066655 -177.4283 
1819702 -0.01956541 -177.5427 -27.35189 -85.76524 -27.35189 -85.76524 -0.01956541 -177.5427 
1905462 -0.01854637 -177.6521 -27.74707 -85.84374 -27.74707 -85.84374 -0.01854637 -177.6521 
1995263 -0.01760061 -177.7567 -28.14251 -85.91594 -28.14251 -85.91594 -0.01760061 -177.7567 
2089297 -0.01672549 -177.8567 -28.53824 -85.98196 -28.53824 -85.98196 -0.01672549 -177.8567 
2187763 -0.01591269 -177.9523 -28.93425 -86.04194 -28.93425 -86.04194 -0.01591269 -177.9523 
2290868 -0.0151591 -178.0437 -29.33058 -86.09597 -29.33058 -86.09597 -0.0151591 -178.0437 
2398834 -0.01446002 -178.1311 -29.72724 -86.14418 -29.72724 -86.14418 -0.01446002 -178.1311 
2511887 -0.01380975 -178.2147 -30.12425 -86.18661 -30.12425 -86.18661 -0.01380975 -178.2147 
2630269 -0.01320515 -178.2946 -30.52165 -86.22337 -30.52165 -86.22337 -0.01320515 -178.2946 
2754229 -0.01264414 -178.371 -30.91945 -86.25452 -30.91945 -86.25452 -0.01264414 -178.371 
2884032 -0.01212309 -178.4441 -31.31771 -86.28008 -31.31771 -86.28008 -0.01212309 -178.4441 
3019952 -0.01163629 -178.514 -31.71643 -86.30006 -31.71643 -86.30006 -0.01163629 -178.514 
3162278 -0.0111858 -178.5808 -32.11568 -86.31455 -32.11568 -86.31455 -0.0111858 -178.5808 
3311311 -0.01076384 -178.6447 -32.5155 -86.3235 -32.5155 -86.3235 -0.01076384 -178.6447 
3467368 -0.01037145 -178.7058 -32.91594 -86.32691 -32.91594 -86.32691 -0.01037145 -178.7058 
3630780 -0.01000603 -178.7643 -33.31705 -86.32477 -33.31705 -86.32477 -0.01000603 -178.7643 
3801893 -0.009664983 -178.8202 -33.71889 -86.31702 -33.71889 -86.31702 -0.009664983 -178.8202 
3981071 -0.009346237 -178.8737 -34.12154 -86.3036 -34.12154 -86.3036 -0.009346237 -178.8737 
4168693 -0.009049788 -178.9249 -34.52506 -86.28444 -34.52506 -86.28444 -0.009049788 -178.9249 
4365157 -0.008772005 -178.9739 -34.92955 -86.25945 -34.92955 -86.25945 -0.008772005 -178.9739 
4570881 -0.00851237 -179.0208 -35.33509 -86.22852 -35.33509 -86.22852 -0.00851237 -179.0208 
4786299 -0.008269843 -179.0657 -35.74179 -86.1915 -35.74179 -86.1915 -0.008269843 -179.0657 
5011870 -0.00804235 -179.1086 -36.14975 -86.14823 -36.14975 -86.14823 -0.00804235 -179.1086 
5248072 -0.007830928 -179.1497 -36.55911 -86.09856 -36.55911 -86.09856 -0.007830928 -179.1497 
5495406 -0.007632465 -179.1891 -36.96999 -86.04224 -36.96999 -86.04224 -0.007632465 -179.1891 
5754403 -0.007444888 -179.2268 -37.38257 -85.97906 -37.38257 -85.97906 -0.007444888 -179.2268 
6025599 -0.007271305 -179.2629 -37.79698 -85.90874 -37.79698 -85.90874 -0.007271305 -179.2629 
6309576 -0.00710757 -179.2975 -38.21342 -85.83097 -38.21342 -85.83097 -0.00710757 -179.2975 
6606937 -0.006953165 -179.3306 -38.6321 -85.74539 -38.6321 -85.74539 -0.006953165 -179.3306 
6918312 -0.006809643 -179.3624 -39.05323 -85.65163 -39.05323 -85.65163 -0.006809643 -179.3624 
7244362 -0.006673895 -179.3928 -39.47709 -85.54922 -39.47709 -85.54922 -0.006673895 -179.3928 
7585778 -0.006546957 -179.4221 -39.90392 -85.43769 -39.90392 -85.43769 -0.006546957 -179.4221 
7943284 -0.006427793 -179.4501 -40.33406 -85.31644 -40.33406 -85.31644 -0.006427793 -179.4501 
8317639 -0.006314847 -179.477 -40.76785 -85.18484 -40.76785 -85.18484 -0.006314847 -179.477 
8709637 -0.006209156 -179.5028 -41.20566 -85.04215 -41.20566 -85.04215 -0.006209156 -179.5028 
9120109 -0.006109684 -179.5276 -41.64792 -84.88755 -41.64792 -84.88755 -0.006109684 -179.5276 
9549926 -0.006015911 -179.5514 -42.09511 -84.72005 -42.09511 -84.72005 -0.006015911 -179.5514 
1E+07 -0.005927838 -179.5743 -42.54778 -84.5386 -42.54778 -84.5386 -0.005927838 -179.5743 
1.047129E+07 -0.005843393 -179.5967 -43.01289 -84.33834 -43.01289 -84.33834 -0.005843393 -179.5967 
1.096478E+07 -0.005765165 -179.6181 -43.48486 -84.12098 -43.48486 -84.12098 -0.005765165 -179.6181 
1.148154E+07 -0.0056916 -179.6388 -43.96444 -83.88477 -43.96444 -83.88477 -0.0056916 -179.6388 
1.202264E+07 -0.005621663 -179.6587 -44.45251 -83.62766 -44.45251 -83.62766 -0.005621663 -179.6587 
1.258925E+07 -0.005555352 -179.6779 -44.95007 -83.34734 -44.95007 -83.34734 -0.005555352 -179.6779 
1.318256E+07 -0.005493704 -179.6964 -45.45826 -83.04095 -45.45826 -83.04095 -0.005493704 -179.6964 
1.380384E+07 -0.005434647 -179.7143 -45.97835 -82.70519 -45.97835 -82.70519 -0.005434647 -179.7143 
1.445439E+07 -0.005379734 -179.7315 -46.51183 -82.33607 -46.51183 -82.33607 -0.005379734 -179.7315 
1.513561E+07 -0.005327412 -179.7482 -47.0604 -81.92881 -47.0604 -81.92881 -0.005327412 -179.7482 
1.584893E+07 -0.005357977 -179.7643 -47.62333 -81.35236 -47.62333 -81.35236 -0.005357977 -179.7643 
1.659586E+07 -0.005391131 -179.78 -48.2048 -80.70754 -48.2048 -80.70754 -0.005391131 -179.78 
1.7378E+07 -0.005426876 -179.7952 -48.80727 -79.98245 -48.80727 -79.98245 -0.005426876 -179.7952 
1.819702E+07 -0.005466766 -179.8099 -49.43355 -79.16231 -49.43355 -79.16231 -0.005466766 -179.8099 
1.905462E+07 -0.005508727 -179.8243 -50.08689 -78.22847 -50.08689 -78.22847 -0.005508727 -179.8243 
1.995263E+07 -0.00555328 -179.8382 -50.77114 -77.1571 -50.77114 -77.1571 -0.00555328 -179.8382 
2.089297E+07 -0.005601976 -179.8519 -51.49075 -75.91742 -51.49075 -75.91742 -0.005601976 -179.8519 
2.187762E+07 -0.005653782 -179.8652 -52.25089 -74.46896 -52.25089 -74.46896 -0.005653782 -179.8652 
2.290868E+07 -0.005708178 -179.8782 -53.05751 -72.75773 -53.05751 -72.75773 -0.005708178 -179.8782 
2.398834E+07 -0.005766201 -179.891 -53.91737 -70.71048 -53.91737 -70.71048 -0.005766201 -179.891 
2.511887E+07 -0.005827332 -179.9035 -54.83778 -68.22608 -54.83778 -68.22608 -0.005827332 -179.9035 
2.630268E+07 -0.005892091 -179.9159 -55.826 -65.16254 -55.826 -65.16254 -0.005892091 -179.9159 
2.754229E+07 -0.005960995 -179.928 -56.88746 -61.31804 -56.88746 -61.31804 -0.005960995 -179.928 
2.884032E+07 -0.006033008 -179.94 -58.02176 -56.40459 -58.02176 -56.40459 -0.006033008 -179.94 
3.019952E+07 -0.005340882 -179.9519 -59.6565 -53.75475 -59.6565 -53.75475 -0.005340882 -179.9519 
3.162278E+07 -0.005384915 -179.9637 -61.04626 -45.62343 -61.04626 -45.62343 -0.005384915 -179.9637 
3.311311E+07 -0.005432056 -179.9754 -62.39958 -34.49308 -62.39958 -34.49308 -0.005432056 -179.9754 
3.467368E+07 -0.005480753 -179.987 -63.47521 -19.74941 -63.47521 -19.74941 -0.005480753 -179.987 
3.63078E+07 -0.005532558 -179.9986 -63.91431 -2.144205 -63.91431 -2.144205 -0.005532558 -179.9986 
3.801893E+07 -0.005587471 179.9898 -63.51164 15.53405 -63.51164 15.53405 -0.005587471 179.9898 
3.981071E+07 -0.005645493 179.9766 -62.30229 32.11481 -62.30229 32.11481 -0.005645493 179.9766 
4.168693E+07 -0.005706106 179.964 -60.83421 43.68941 -60.83421 43.68941 -0.005706106 179.964 
4.365157E+07 -0.005769827 179.9513 -59.34118 51.98412 -59.34118 51.98412 -0.005769827 179.9513 
4.57088E+07 -0.005837176 179.9383 -57.93397 57.99083 -57.93397 57.99083 -0.005837176 179.9383 
4.786299E+07 -0.005907633 179.9252 -56.64074 62.45342 -56.64074 62.45342 -0.005907633 179.9252 
5.01187E+07 -0.005982754 179.9117 -55.45847 65.86301 -55.45847 65.86301 -0.005982754 179.9117 
5.248072E+07 -0.006062538 179.898 -54.37475 68.53662 -54.37475 68.53662 -0.006062538 179.898 
5.495406E+07 -0.006144913 179.884 -53.37569 70.68146 -53.37569 70.68146 -0.006144913 179.884 
5.754402E+07 -0.006232471 179.8696 -52.44854 72.43622 -52.44854 72.43622 -0.006232471 179.8696 
6.025599E+07 -0.006324691 179.8548 -51.58244 73.89611 -51.58244 73.89611 -0.006324691 179.8548 
6.309576E+07 -0.006421576 179.8396 -50.76822 75.12832 -50.76822 75.12832 -0.006421576 179.8396 
6.606937E+07 -0.006523642 179.8239 -49.9983 76.18134 -49.9983 76.18134 -0.006523642 179.8239 
6.918312E+07 -0.006630891 179.8077 -49.26638 77.09093 -49.26638 77.09093 -0.006630891 179.8077 
7.244362E+07 -0.006743841 179.7909 -48.5672 77.88391 -48.5672 77.88391 -0.006743841 179.7909 
7.585778E+07 -0.006863528 179.7735 -47.89638 78.58086 -47.89638 78.58086 -0.006863528 179.7735 
7.943284E+07 -0.006989434 179.7556 -47.25021 79.19769 -47.25021 79.19769 -0.006989434 179.7556 
8.317639E+07 -0.00712156 179.7368 -46.62558 79.747 -46.62558 79.747 -0.00712156 179.7368 
8.709637E+07 -0.00726146 179.7174 -46.0198 80.23879 -46.0198 80.23879 -0.00726146 179.7174 
9.120109E+07 -0.007409134 179.6972 -45.4306 80.68111 -45.4306 80.68111 -0.007409134 179.6972 
9.549926E+07 -0.007564066 179.6761 -44.85601 81.08058 -44.85601 81.08058 -0.007564066 179.6761 
1E+08 -0.007728328 179.6541 -44.29433 81.44257 -44.29433 81.44257 -0.007728328 179.6541 
1.04713E+08 -0.00790192 179.6312 -43.74407 81.77158 -43.74407 81.77158 -0.00790192 179.6312 
1.096478E+08 -0.008085362 179.6072 -43.20398 82.0713 -43.20398 82.0713 -0.008085362 179.6072 
1.148155E+08 -0.008278653 179.5822 -42.67287 82.34494 -42.67287 82.34494 -0.008278653 179.5822 
1.202264E+08 -0.008483867 179.556 -42.14981 82.59512 -42.14981 82.59512 -0.008483867 179.556 
1.258926E+08 -0.00869997 179.5285 -41.63387 82.82408 -41.63387 82.82408 -0.00869997 179.5285 
1.318256E+08 -0.008929553 179.4998 -41.12431 83.03378 -41.12431 83.03378 -0.008929553 179.4998 
1.380385E+08 -0.009172617 179.4697 -40.62042 83.22585 -40.62042 83.22585 -0.009172617 179.4697 
1.445439E+08 -0.009430198 179.4381 -40.12161 83.40173 -40.12161 83.40173 -0.009430198 179.4381 
1.513562E+08 -0.009702818 179.405 -39.6273 83.56262 -39.6273 83.56262 -0.009702818 179.405 
1.584892E+08 -0.009993071 179.3703 -39.13703 83.70959 -39.13703 83.70959 -0.009993071 179.3703 
1.659588E+08 -0.01030044 179.3338 -38.65032 83.84357 -38.65032 83.84357 -0.01030044 179.3338 
1.7378E+08 -0.01062855 179.2955 -38.16682 83.9653 -38.16682 83.9653 -0.01062855 179.2955 
1.819702E+08 -0.01097533 179.2552 -37.68612 84.07549 -37.68612 84.07549 -0.01097533 179.2552 
