!Agilent Technologies,N5242A,MY49421564,A.09.80.20
!Agilent N5242A: A.09.80.20
!Date: Tuesday, November 08, 2016 23:47:56
!Correction: S33(Full 2 Port(3,4)) 
!S43(Full 2 Port(3,4)) 
!S34(Full 2 Port(3,4)) 
!S44(Full 2 Port(3,4)) 
!S2P File: Measurements: S33, S43, S34, S44:
# Hz S  dB   R 50
10000000 -52.876514 -151.28897 0.01178404 0.018665612 0.006672963 -0.07935369 -52.53466 -101.3579
26556250 -49.467899 164.3219 0.024733672 -0.25326115 0.0064194924 -0.2811563 -60.410351 144.85506
43112500 -50.704449 160.58423 0.026324516 -0.45739013 0.0064749373 -0.48249349 -59.842163 101.98598
59668750 -51.734215 152.60799 0.018402547 -0.62712437 0.0044094771 -0.62955624 -57.136772 121.79464
76225000 -52.019566 133.66347 0.013516966 -0.80270082 0.0044978959 -0.80582899 -53.495895 116.48933
92781250 -49.201191 140.74585 0.022724139 -0.98985738 0.0022052398 -0.99296546 -52.311508 101.19097
109337500 -49.944767 131.2597 0.015748346 -1.165666 0.0013577212 -1.1712221 -51.930126 102.03963
125893750 -49.612309 118.48469 0.01071493 -1.3477659 0.0097089065 -1.353709 -49.124073 118.67177
142450000 -48.097477 125.78436 0.017127983 -1.5252668 0.00016280492 -1.5330631 -49.103519 97.063316
159006250 -49.075642 107.90095 0.0072370218 -1.7027589 0.0049154167 -1.7085556 -48.703579 102.41386
175562500 -45.496067 130.07713 0.026476327 -1.8849813 -0.0050028684 -1.8837461 -48.228802 88.923973
192118750 -47.315208 103.88473 0.0068599451 -2.0638328 0.0065958886 -2.0683665 -46.498062 105.19653
208675000 -46.938038 95.146332 0.001708762 -2.2378533 0.007787141 -2.2367296 -45.871227 107.0695
225231250 -44.905258 118.47285 0.021298464 -2.4190342 -0.0051670526 -2.4153605 -46.077801 89.294884
241787500 -42.281776 132.56827 0.045181453 -2.6012349 -0.0093118194 -2.5913141 -45.039444 86.340218
258343750 -42.741337 127.85567 0.038446173 -2.7713649 -0.0078872172 -2.7676153 -44.731953 82.853844
274900000 -44.145031 104.07327 0.013355984 -2.9471252 -0.0044494271 -2.9457862 -44.174828 86.948257
291456250 -44.043266 99.951668 0.0095592849 -3.12868 0.0068853274 -3.130301 -43.500916 97.38678
308012500 -43.843304 93.213287 0.0016639564 -3.3039296 0.0047493703 -3.3030956 -43.059826 95.324181
324568750 -43.47567 90.857758 -0.0019875483 -3.477021 0.0038599535 -3.4908483 -42.902946 94.353813
341125000 -43.026394 89.727554 -0.00069436838 -3.6587818 -0.0055021476 -3.6584482 -42.4133 87.59761
357681250 -41.907574 107.9736 0.020107672 -3.8330271 -0.008518626 -3.8282561 -42.095348 82.791809
374237500 -41.382385 107.85224 0.020489294 -4.0085287 -0.010545886 -3.9970386 -41.905117 83.51152
390793750 -40.724209 111.68495 0.028572932 -4.1766419 -0.012695996 -4.1831641 -41.276577 82.044052
407350000 -40.482712 111.53293 0.031116547 -4.3416343 -0.014487499 -4.3600373 -40.747097 79.240616
423906250 -40.920307 94.62973 0.0072066924 -4.5263381 -0.011816726 -4.5286627 -40.549286 81.030151
440462500 -40.766178 90.060104 0.0012826206 -4.6999588 0.024257943 -4.7147241 -39.434521 104.08137
457018750 -40.605911 86.787254 -0.0042682821 -4.8763022 0.036368527 -4.8889914 -38.572758 109.22176
473575000 -40.263813 85.462914 -0.0075836908 -5.0506678 0.025499219 -5.0649524 -38.856411 102.71479
490131250 -40.060753 84.5597 -0.0069646873 -5.225647 0.0045696967 -5.2331581 -39.164074 91.749054
506687500 -39.124008 103.89175 0.025120689 -5.4125242 -0.008808325 -5.4049568 -39.092171 82.95649
523243750 -38.518883 108.2231 0.034349799 -5.5826292 -0.012758444 -5.5763674 -39.025055 80.609207
539800000 -38.227425 107.98717 0.03603714 -5.7597294 -0.015664205 -5.7547426 -38.800163 79.589325
556356250 -38.425659 102.77826 0.026949069 -5.9339542 -0.01731207 -5.9358501 -38.379509 78.576797
572912500 -38.722958 88.381081 0.0010464914 -6.0998874 -0.0066751079 -6.1071072 -38.142487 83.97448
589468750 -38.512863 85.352165 -0.00308657 -6.2730703 0.0029289722 -6.2870097 -37.819191 89.189194
606025000 -38.414154 81.02272 -0.01063056 -6.4456062 0.0027642807 -6.4623294 -37.498989 88.652946
622581250 -38.237652 79.883568 -0.011900355 -6.6253109 0.0013367485 -6.6372843 -37.365391 87.096512
639137500 -38.030384 80.74926 -0.010337058 -6.8020363 -0.0057289395 -6.8102541 -37.316376 83.852791
655693750 -37.798298 85.243187 -0.0023787166 -6.9773273 -0.01480465 -6.9861364 -37.13364 79.323547
672250000 -37.443878 89.55748 0.0067783329 -7.147511 -0.017026788 -7.1531043 -36.949646 78.12159
688806250 -37.119339 89.858391 0.010027616 -7.329371 -0.019809896 -7.3290339 -36.8223 76.730621
705362500 -37.106964 86.109589 0.0012111913 -7.5026736 -0.023529775 -7.5063591 -36.550285 75.844139
721918750 -36.954765 82.597496 -0.0065841391 -7.6761918 -0.021667017 -7.6743116 -36.353996 76.157173
738475000 -36.779896 81.069862 -0.0084256716 -7.8450913 -0.0037231634 -7.8561425 -36.043701 83.76889
755031250 -36.665928 78.109543 -0.015108799 -8.0179749 -0.0016010525 -8.0328979 -35.766533 85.032341
771587500 -36.473385 77.587692 -0.016984401 -8.197278 0.00030159979 -8.2050085 -35.564564 85.336716
788143750 -36.332977 77.292328 -0.017039083 -8.370594 -0.002236323 -8.3834038 -35.463291 84.13208
804700000 -36.12389 81.990814 -0.0062525142 -8.5458584 -0.018253829 -8.5541353 -35.435043 78.107132
821256250 -35.808369 86.328651 0.0041238209 -8.7176971 -0.021902045 -8.7270079 -35.239002 76.549034
837812500 -35.483803 88.65744 0.012943222 -8.8993368 -0.025426211 -8.8886662 -35.27174 74.412827
854368750 -35.557671 81.80674 -0.0058963276 -9.0688715 -0.0273045 -9.0711308 -35.094288 74.353233
870925000 -35.433792 80.062874 -0.010460394 -9.2418537 -0.028083604 -9.2527113 -34.82383 74.07618
887481250 -35.31131 79.504654 -0.010941985 -9.4125156 -0.014640484 -9.421793 -34.624947 78.498833
904037500 -35.215118 78.238205 -0.01514407 -9.5875759 -0.0019404381 -9.5967083 -34.357582 82.542679
920593750 -35.030685 75.832672 -0.022185596 -9.7645702 -0.0033791196 -9.76968 -34.193958 82.070007
937150000 -34.94191 75.244987 -0.02182767 -9.9283504 -0.00075911323 -9.9471197 -34.043697 82.4562
953706250 -34.644646 82.619354 -0.0011453684 -10.116651 -0.014519499 -10.113043 -34.069019 78.533943
970262500 -34.397301 85.197823 0.0062527019 -10.287851 -0.023408614 -10.294224 -33.924328 75.249542
986818750 -34.154705 87.037788 0.013051055 -10.460749 -0.028610557 -10.457462 -33.833958 73.379318
1003375000 -34.126461 82.818726 0.00084020681 -10.633343 -0.031547874 -10.630569 -33.761562 72.825478
1019931250 -34.074047 79.165031 -0.010419704 -10.799335 -0.032607514 -10.809344 -33.567657 72.570824
1036487500 -34.006493 78.387421 -0.013009217 -10.97573 -0.028987136 -10.983387 -33.413994 73.275238
1053043750 -33.953342 75.41626 -0.022872524 -11.148646 -0.018776679 -11.158298 -33.245014 76.251724
1069600000 -33.833164 73.564056 -0.028469186 -11.313711 -0.017035469 -11.3306 -33.079144 76.996407
1086156250 -33.756321 73.392982 -0.026164664 -11.47868 -0.0155602 -11.498557 -32.939018 77.333824
1102712500 -33.571507 75.669434 -0.020496706 -11.667198 -0.027232217 -11.668568 -32.91621 73.561478
1119268750 -33.371967 78.474724 -0.011247475 -11.834855 -0.030098766 -11.840159 -32.839462 72.742584
1135825000 -33.151749 80.261223 -0.0030218109 -12.010764 -0.033299699 -12.020817 -32.683331 71.890663
1152381250 -33.030205 79.767357 -0.0039561386 -12.189542 -0.036756165 -12.190491 -32.609867 70.577065
1168937500 -33.081997 76.668015 -0.015029344 -12.350862 -0.037072111 -12.364263 -32.502254 70.328438
1185493750 -33.02103 75.73835 -0.019131161 -12.527514 -0.02551098 -12.539846 -32.286739 73.178589
1202050000 -32.954735 74.64225 -0.022784833 -12.69783 -0.011232083 -12.715342 -32.09293 76.386124
1218606250 -32.90884 72.101341 -0.03008898 -12.86107 -0.0071770656 -12.888968 -31.95215 77.614777
1235162500 -32.781986 72.350372 -0.027462564 -13.041662 -0.017639797 -13.055605 -31.895765 74.609337
1251718750 -32.65831 73.233917 -0.024656417 -13.221259 -0.020693915 -13.230752 -31.857153 73.461525
1268275000 -32.521828 72.853867 -0.025330232 -13.394276 -0.032505017 -13.403231 -31.872288 70.703918
1284831250 -32.409191 72.597061 -0.024923695 -13.562564 -0.036647785 -13.574912 -31.773546 69.789589
1301387500 -32.344463 73.327728 -0.021500686 -13.735086 -0.038231395 -13.746143 -31.719 68.892403
1317943750 -32.253407 73.163254 -0.023039088 -13.908299 -0.04034761 -13.920142 -31.6807 68.296135
1334500000 -32.15913 73.264275 -0.020158969 -14.080937 -0.038557507 -14.094697 -31.551632 68.852432
1351056250 -32.139091 72.353462 -0.022948476 -14.256436 -0.029953523 -14.262516 -31.400846 70.708717
1367612500 -32.073082 70.331635 -0.031195628 -14.430161 -0.029556749 -14.442903 -31.29509 70.83094
1384168750 -31.988188 69.572754 -0.034050446 -14.592696 -0.031460024 -14.617229 -31.178661 70.840111
1400725000 -31.860514 71.038315 -0.028124843 -14.765686 -0.030891968 -14.782099 -31.060028 70.70829
1417281250 -31.654528 72.997292 -0.019565111 -14.946426 -0.036369745 -14.953406 -31.039688 69.251472
1433837500 -31.529156 72.80632 -0.017828928 -15.120252 -0.039558932 -15.124171 -30.950409 68.489159
1450393750 -31.466656 74.353607 -0.01322667 -15.289827 -0.043598332 -15.293977 -30.866709 67.012733
1466950000 -31.37731 73.473557 -0.017216561 -15.454798 -0.043400683 -15.465275 -30.801323 66.65416
1483506250 -31.300608 71.137192 -0.024852475 -15.624347 -0.044773612 -15.648563 -30.675423 66.535706
1500062500 -31.276146 69.972519 -0.026614627 -15.796875 -0.04089912 -15.814283 -30.545433 67.394058
1516618750 -31.233339 68.379272 -0.035071213 -15.976619 -0.03520859 -15.984328 -30.476683 67.850754
1533175000 -31.152832 67.60891 -0.037321504 -16.136335 -0.034748372 -16.169508 -30.406004 67.934677
1549731250 -31.065521 68.122536 -0.032407891 -16.309883 -0.035595402 -16.341574 -30.302137 68.066566
1566287500 -30.771851 74.752296 -0.0044281017 -16.502394 -0.039629459 -16.508102 -30.281172 66.975479
1582843750 -30.625362 75.683159 0.0014283477 -16.676941 -0.040561877 -16.682106 -30.23938 66.61171
1599400000 -30.658381 73.685188 -0.0076783071 -16.845533 -0.046304937 -16.85845 -30.121954 65.417793
1615956250 -30.722031 69.727119 -0.026088152 -17.009277 -0.046864208 -17.016768 -30.076603 64.69651
1632512500 -30.669294 68.892052 -0.028190311 -17.169872 -0.044125289 -17.193062 -30.028843 64.952576
1649068750 -30.633783 68.210258 -0.029523911 -17.344351 -0.031608805 -17.374592 -29.83828 67.496414
1665625000 -30.607866 66.501938 -0.036995858 -17.520601 -0.028078856 -17.551203 -29.756584 68.068962
1682181250 -30.587917 65.542191 -0.038518995 -17.681681 -0.026538912 -17.726599 -29.698763 68.309738
1698737500 -30.457617 67.644165 -0.028494859 -17.875332 -0.035744533 -17.89946 -29.704012 66.360725
1715293750 -30.012047 77.378754 0.015615255 -18.06406 -0.040650357 -18.051781 -29.692934 64.905632
1731850000 -29.844482 77.668823 0.018141961 -18.242813 -0.041164357 -18.223953 -29.705076 64.463203
1748406250 -29.806549 76.721832 0.015451066 -18.419687 -0.043738008 -18.41885 -29.553587 64.284035
1764962500 -29.958908 74.062904 0.00026648276 -18.582565 -0.049353499 -18.58145 -29.466202 62.893688
1781518750 -30.101547 67.754204 -0.030296084 -18.735924 -0.04934689 -18.739672 -29.456732 62.65506
1798075000 -30.079836 66.674217 -0.032663926 -18.893641 -0.03828758 -18.926575 -29.319771 64.826149
1814631250 -30.03224 65.786446 -0.033477519 -19.076654 -0.031320632 -19.098314 -29.172216 66.222939
1831187500 -29.987545 64.3489 -0.040404491 -19.258165 -0.028405765 -19.266014 -29.096003 66.489204
1847743750 -29.910519 63.868546 -0.043837182 -19.428061 -0.03481809 -19.440609 -29.082478 64.983986
1864300000 -29.690151 68.371902 -0.02087752 -19.602671 -0.036915168 -19.615515 -29.044121 64.150002
1880856250 -29.392981 71.892998 0.00096921244 -19.791342 -0.044403005 -19.78751 -29.036705 62.737305
1897412500 -29.337757 72.979912 0.0084226066 -19.975147 -0.046784941 -19.955246 -29.022087 61.971241
1913968750 -29.333233 74.152977 0.010076168 -20.139647 -0.048586626 -20.13199 -28.949169 61.605309
1930525000 -29.493811 67.615547 -0.024182627 -20.292847 -0.049236517 -20.307777 -28.906595 61.043499
1947081250 -29.524391 64.852516 -0.033331588 -20.450996 -0.045071252 -20.489075 -28.835762 61.925869
1963637500 -29.504679 64.31105 -0.034912739 -20.632719 -0.040547997 -20.660896 -28.735842 62.720284
1980193750 -29.467787 63.04208 -0.043064449 -20.824738 -0.037266955 -20.82478 -28.659576 62.767521
1996750000 -29.432943 62.826977 -0.044371027 -20.986404 -0.035926726 -21.015385 -28.6078 62.952106
2013306250 -29.261642 65.616051 -0.029692223 -21.163891 -0.043511193 -21.193901 -28.567978 62.00769
2029862500 -29.059586 68.318008 -0.01282014 -21.354269 -0.049002863 -21.346001 -28.544209 60.797592
2046418750 -29.056225 68.378937 -0.013472229 -21.532217 -0.046874713 -21.51606 -28.57131 60.70406
2062975000 -28.965036 69.620911 -0.0094006071 -21.706547 -0.051226936 -21.707815 -28.520756 60.072102
2079531250 -29.048872 65.456284 -0.030270966 -21.860884 -0.054394331 -21.879431 -28.441101 59.800602
2096087500 -29.078899 63.686905 -0.038480472 -22.026628 -0.049389582 -22.04578 -28.386507 60.492466
2112643750 -29.035749 63.337063 -0.040419735 -22.196836 -0.046015203 -22.212849 -28.319328 60.876369
2129200000 -29.026243 62.049477 -0.044662889 -22.371111 -0.04301393 -22.387152 -28.228382 61.105701
2145756250 -29.001116 61.746822 -0.046349887 -22.563593 -0.041757166 -22.573505 -28.161276 61.068935
2162312500 -28.895481 62.805115 -0.043171942 -22.750032 -0.043158572 -22.764677 -28.111437 61.152233
2178868750 -28.655586 67.017975 -0.020585682 -22.909882 -0.053786162 -22.927385 -28.099689 59.850327
2195425000 -28.579945 67.185486 -0.01535548 -23.088079 -0.052643061 -23.069645 -28.120853 59.481018
2211981250 -28.516083 67.190079 -0.015447828 -23.267292 -0.056125429 -23.254959 -28.136051 58.817417
2228537500 -28.605169 64.424171 -0.031483088 -23.433126 -0.058525912 -23.43177 -28.058796 58.626682
2245093750 -28.661636 62.607857 -0.042347673 -23.609339 -0.054379631 -23.597162 -28.004665 58.72641
2261650000 -28.627134 62.221645 -0.04716251 -23.769743 -0.04121767 -23.799065 -27.818159 60.824596
2278206250 -28.614622 61.13195 -0.05028649 -23.920454 -0.043294489 -23.973862 -27.74304 61.261196
2294762500 -28.581076 61.02914 -0.048291933 -24.128536 -0.037085943 -24.119724 -27.59553 61.779171
2311318750 -28.414427 62.908497 -0.042972773 -24.323795 -0.042860117 -24.293184 -27.640068 60.317673
2327875000 -28.24704 65.051399 -0.030760501 -24.475183 -0.051534727 -24.494017 -27.646622 59.221252
2344431250 -28.169689 64.909225 -0.027896024 -24.643513 -0.058228988 -24.653036 -27.593443 58.537796
2360987500 -28.077963 65.526588 -0.024930973 -24.823149 -0.060875781 -24.800554 -27.632858 57.925278
2377543750 -27.981518 65.246353 -0.024840659 -24.982962 -0.062765971 -24.974861 -27.613029 57.542282
2394100000 -28.141808 61.640301 -0.043614805 -25.150642 -0.063887276 -25.158369 -27.522711 57.302979
2410656250 -28.128511 61.598282 -0.047276467 -25.353151 -0.046954546 -25.344608 -27.304682 59.672985
2427212500 -28.08931 60.835117 -0.056604981 -25.515148 -0.025585186 -25.530384 -27.018162 62.823753
2443768750 -28.090431 60.003391 -0.059696056 -25.671896 -0.021479703 -25.688211 -26.907072 63.468925
2460325000 -28.046612 59.791599 -0.061343804 -25.843735 -0.045863174 -25.843872 -27.085098 59.670071
2476881250 -27.858244 62.305737 -0.044847261 -26.013613 -0.055787664 -26.02512 -27.149391 58.175549
2493437500 -27.77327 62.705769 -0.038310397 -26.200289 -0.062778346 -26.194918 -27.114452 57.49865
2509993750 -27.731564 62.864216 -0.040464021 -26.378311 -0.065349869 -26.345169 -27.136618 56.841042
2526550000 -27.575022 64.009979 -0.032628179 -26.540945 -0.065860435 -26.529675 -27.146555 56.554882
2543106250 -27.688704 61.286598 -0.045136511 -26.708332 -0.069262117 -26.727362 -27.026031 56.509258
2559662500 -27.698063 60.940636 -0.052710243 -26.918484 -0.050434109 -26.887602 -26.770292 58.999687
2576218750 -27.687111 59.856617 -0.064682759 -27.054205 -0.039154328 -27.051884 -26.608187 60.245396
2592775000 -27.733311 59.189285 -0.061987232 -27.183462 -0.029536564 -27.234894 -26.449509 61.24509
2609331250 -27.671585 59.31525 -0.059141774 -27.388224 -0.034663204 -27.41123 -26.467489 60.347645
2625887500 -27.509413 60.670746 -0.053501483 -27.574619 -0.04881376 -27.583395 -26.56749 58.781853
2642443750 -27.385021 61.682953 -0.046222042 -27.744814 -0.067699969 -27.734085 -26.674412 56.529137
2659000000 -27.337381 61.804485 -0.045735251 -27.913639 -0.066907346 -27.887144 -26.665192 56.227692
2675556250 -27.259359 61.909424 -0.045329131 -28.077553 -0.069168679 -28.07535 -26.690649 55.590118
2692112500 -27.247789 60.962799 -0.047535468 -28.253042 -0.074033648 -28.268337 -26.614048 55.435806
2708668750 -27.300446 59.91069 -0.055849366 -28.440498 -0.072939716 -28.410349 -26.533194 55.531193
2725225000 -27.273451 59.207664 -0.06342151 -28.600512 -0.058805715 -28.589231 -26.379244 56.886486
2741781250 -27.276316 58.140839 -0.068625338 -28.744011 -0.055538435 -28.777912 -26.280087 57.434994
2758337500 -27.248955 57.866505 -0.068430193 -28.910273 -0.055469926 -28.942169 -26.188969 57.637268
2774893750 -27.16132 58.41663 -0.061720479 -29.082619 -0.054722402 -29.1073 -26.15954 57.458488
2791450000 -27.023609 59.486591 -0.052204959 -29.272278 -0.068420246 -29.267897 -26.265522 55.795368
2808006250 -26.970285 60.034988 -0.04998995 -29.460028 -0.069964744 -29.433672 -26.234489 55.21896
2824562500 -26.928591 59.989006 -0.052096061 -29.629522 -0.072297998 -29.612398 -26.249033 54.487103
2841118750 -26.87816 60.168079 -0.051747527 -29.801554 -0.076588057 -29.815279 -26.207306 54.199196
2857675000 -26.887587 59.28146 -0.058937158 -29.963648 -0.080507748 -29.966854 -26.11998 54.209396
2874231250 -26.891964 58.486206 -0.062381677 -30.121378 -0.054364525 -30.132586 -25.830359 56.677273
2890787500 -26.896183 57.639576 -0.065819837 -30.291756 -0.044345807 -30.319822 -25.695387 57.587185
2907343750 -26.851585 57.439289 -0.066426508 -30.463816 -0.043381076 -30.479853 -25.596865 57.852829
2923900000 -26.777546 57.811909 -0.061926369 -30.636168 -0.04537024 -30.643179 -25.623026 56.75737
2940456250 -26.617485 59.002029 -0.051201701 -30.83567 -0.059683722 -30.851084 -25.793936 54.995037
2957012500 -26.575888 58.997776 -0.055532597 -31.010931 -0.074547738 -31.030325 -25.778086 54.134304
2973568750 -26.522554 58.790703 -0.05458064 -31.159248 -0.082530223 -31.137184 -25.793364 53.027824
2990125000 -26.517941 58.347214 -0.054515917 -31.349329 -0.076270305 -31.31192 -25.803942 52.753365
3006681250 -26.522955 57.938229 -0.064372085 -31.524275 -0.077699862 -31.530169 -25.711685 52.870876
3023237500 -26.490255 57.436283 -0.068810396 -31.646954 -0.070857622 -31.681297 -25.528551 53.995533
3039793750 -26.531502 56.639935 -0.066065453 -31.80036 -0.052514534 -31.84449 -25.353331 55.361324
3056350000 -26.526936 56.103741 -0.067694962 -32.007458 -0.054471377 -32.040928 -25.348085 55.105419
3072906250 -26.463324 56.074139 -0.069895685 -32.197823 -0.063424587 -32.205212 -25.359766 54.236477
3089462500 -26.411575 56.157974 -0.071285255 -32.38549 -0.0701432 -32.367661 -25.430237 53.114292
3106018750 -26.380901 56.143204 -0.076156676 -32.549034 -0.075660475 -32.559547 -25.426697 52.578812
3122575000 -26.318907 56.119282 -0.074832946 -32.679546 -0.08247789 -32.72517 -25.381104 52.141655
3139131250 -26.256001 56.146484 -0.067353614 -32.87001 -0.082998611 -32.857239 -25.383471 51.571663
3155687500 -26.151361 56.985928 -0.064119145 -33.072151 -0.079956472 -33.049908 -25.364338 51.538891
3172243750 -26.104914 56.812256 -0.067251481 -33.204357 -0.074826606 -33.242825 -25.181328 52.468102
3188800000 -26.156178 55.494625 -0.071033783 -33.369587 -0.072007105 -33.391113 -25.108473 52.529751
3205356250 -26.152918 55.201626 -0.076773159 -33.561287 -0.0677993 -33.566246 -25.079384 52.525776
3221912500 -26.112871 54.988113 -0.079736874 -33.702492 -0.07121329 -33.787426 -25.043476 52.299629
3238468750 -26.036068 55.52142 -0.068846412 -33.888771 -0.080261804 -33.908409 -25.058105 51.57354
3255025000 -26.003387 55.853645 -0.072574943 -34.106289 -0.080443747 -34.057995 -25.076586 51.146179
