!Agilent Technologies,N5242A,MY49421564,A.09.80.20
!Agilent N5242A: A.09.80.20
!Date: Tuesday, November 08, 2016 23:47:21
!Correction: S33(Full 2 Port(3,4)) 
!S43(Full 2 Port(3,4)) 
!S34(Full 2 Port(3,4)) 
!S44(Full 2 Port(3,4)) 
!S2P File: Measurements: S33, S43, S34, S44:
# Hz S  dB   R 50
10000000 -56.27663 -149.34811 0.010740484 -0.08525677 5.2310585e-005 -0.094956473 -57.271984 -81.396454
26556250 -51.418674 160.2392 0.019617492 -0.28150782 -0.0013769316 -0.29183865 -60.767818 101.75944
43112500 -52.627438 158.34547 0.021060202 -0.46006036 -0.0017700429 -0.47951189 -58.722603 66.750832
59668750 -54.226334 144.29318 0.013592964 -0.62258798 -0.0014445044 -0.63682085 -58.608101 85.80233
76225000 -53.61755 122.09353 0.0094827106 -0.79881507 -0.00016914972 -0.81188214 -54.725002 94.20459
92781250 -50.380096 133.77254 0.01909722 -0.98918504 -0.0014372279 -1.0010418 -52.474773 81.512093
109337500 -51.196918 121.03057 0.012068135 -1.1655946 -0.0013145035 -1.1778098 -52.117378 83.494736
125893750 -50.420719 107.41055 0.0072686789 -1.343166 0.007108618 -1.3591802 -49.959808 106.15411
142450000 -48.95916 117.68481 0.014727532 -1.5191768 -0.0014291847 -1.5374385 -49.162685 83.993118
159006250 -49.474377 97.299583 0.0033271529 -1.698807 0.001991926 -1.7132902 -48.867226 89.995934
175562500 -46.299328 124.56535 0.023337116 -1.881493 -0.0076451488 -1.8849704 -48.051533 76.88942
192118750 -47.775719 94.975761 0.0038508275 -2.0545161 0.0046413806 -2.0687249 -46.813972 95.265793
208675000 -47.06723 86.500954 -0.0022892761 -2.2357304 0.0065363189 -2.2456152 -46.123741 98.106392
225231250 -45.485371 112.09592 0.017188193 -2.4108071 -0.0062302081 -2.4146008 -46.018944 80.030922
241787500 -42.84515 128.72269 0.04200463 -2.5918789 -0.0093559846 -2.5966678 -44.900028 78.193886
258343750 -43.255962 123.72775 0.034437332 -2.7653978 -0.010986279 -2.7713299 -44.486816 74.760704
274900000 -44.449219 98.149284 0.0097047193 -2.9427683 -0.0086561954 -2.9514534 -44.01403 79.370422
291456250 -44.269489 93.883751 0.0050027645 -3.1190727 0.0031716216 -3.1345088 -43.562061 90.429489
308012500 -43.987171 87.078735 -0.0017810706 -3.2944849 0.0014974137 -3.3078845 -43.085434 88.550362
324568750 -43.551434 85.212677 -0.0047958079 -3.4717665 0.00069946586 -3.4860833 -42.938202 87.788963
341125000 -43.079662 84.046417 -0.0041010715 -3.6444049 -0.0085040843 -3.6620409 -42.335709 81.203827
357681250 -42.197498 103.40228 0.01697275 -3.8274853 -0.011815824 -3.8318374 -41.984119 76.99157
374237500 -41.661648 103.30682 0.018251469 -4.0059676 -0.012174992 -4.0072336 -41.757256 77.972549
390793750 -41.026218 107.91193 0.026059955 -4.1770024 -0.015232368 -4.1894803 -41.131905 76.778854
407350000 -40.758339 107.94023 0.026923822 -4.3426127 -0.017751673 -4.3689408 -40.588234 74.416725
423906250 -41.046314 90.342339 0.0036596372 -4.5196624 -0.015492352 -4.5375204 -40.412102 76.096321
440462500 -40.856964 85.734291 -0.0028348602 -4.6932139 0.020564312 -4.7180943 -39.576378 99.881302
457018750 -40.654404 82.688301 -0.0080625722 -4.8764572 0.034154993 -4.8961983 -38.746761 105.5429
473575000 -40.304714 81.691551 -0.010770932 -5.0453854 0.022689354 -5.0728855 -38.974941 98.728806
490131250 -40.082832 81.105286 -0.010774388 -5.2233357 0.0027353 -5.2413139 -39.149784 87.649055
506687500 -39.301422 100.60908 0.02039212 -5.4050932 -0.011288867 -5.4174495 -38.988773 78.760124
523243750 -38.738342 105.18495 0.030035822 -5.5774164 -0.01521131 -5.5892444 -38.88641 76.640656
539800000 -38.428329 105.04884 0.031916741 -5.7551641 -0.018303676 -5.7643371 -38.656834 75.584129
556356250 -38.604256 99.78653 0.022890169 -5.9275475 -0.020631049 -5.9436736 -38.230339 74.859711
572912500 -38.781303 84.996513 -0.0033963993 -6.1009827 -0.0093601746 -6.1157408 -38.059021 80.223747
589468750 -38.550827 82.085541 -0.0076212417 -6.2729101 -5.1776944e-005 -6.2928767 -37.786049 85.484062
606025000 -38.445469 78.124146 -0.014922034 -6.4449453 3.6072805e-005 -6.4679394 -37.458591 85.120834
622581250 -38.25272 77.232887 -0.01684338 -6.6189537 -0.0014708644 -6.6447964 -37.319653 83.859543
639137500 -38.03891 77.518661 -0.016379975 -6.8006144 -0.0097226696 -6.8159652 -37.227058 80.420494
655693750 -37.851765 82.137161 -0.0080672428 -6.9749146 -0.019648304 -6.9883342 -36.998825 75.854317
672250000 -37.516834 86.754089 0.001077806 -7.1469288 -0.021170074 -7.1605997 -36.810261 74.740402
688806250 -37.199863 87.158028 0.0039133057 -7.3288894 -0.024794588 -7.3363867 -36.677494 73.534874
705362500 -37.169689 83.374214 -0.0037127223 -7.5021501 -0.028051184 -7.5120797 -36.392475 72.651581
721918750 -36.985161 79.791389 -0.011587663 -7.6716866 -0.026021024 -7.6822906 -36.202034 73.120392
738475000 -36.77578 78.450424 -0.013935519 -7.8449564 -0.0083971787 -7.8612146 -35.955578 80.860672
755031250 -36.648964 75.467545 -0.021079287 -8.0185938 -0.0058389301 -8.0372038 -35.7104 82.090912
771587500 -36.457336 74.884323 -0.022954935 -8.1941471 -0.0042015724 -8.2116585 -35.497967 82.422241
788143750 -36.318134 74.60791 -0.022766842 -8.3670053 -0.0063677398 -8.3878365 -35.395638 81.43486
804700000 -36.151279 79.398109 -0.011824773 -8.5431767 -0.023232751 -8.560317 -35.326355 75.279556
821256250 -35.870895 83.790932 -0.00069739518 -8.7153397 -0.027116198 -8.7315512 -35.114304 73.711868
837812500 -35.559216 86.371819 0.0072373045 -8.8933525 -0.0310126 -8.8892374 -35.132351 71.577148
854368750 -35.592266 79.517052 -0.010799668 -9.0668621 -0.032059744 -9.069931 -34.954529 71.642296
870925000 -35.430676 77.706985 -0.016106347 -9.2396078 -0.032953672 -9.2551241 -34.67675 71.41317
887481250 -35.314186 77.229401 -0.016553342 -9.4140902 -0.019396458 -9.4240561 -34.519062 75.802673
904037500 -35.235462 75.836784 -0.020871386 -9.5896626 -0.0078465194 -9.6019583 -34.280693 79.897812
920593750 -35.029167 73.691109 -0.027804157 -9.7622147 -0.0087527065 -9.7728481 -34.109642 79.479965
937150000 -34.922356 73.123299 -0.027366184 -9.9240599 -0.0056143254 -9.9454641 -33.952351 80.014572
953706250 -34.688293 80.522751 -0.0060515669 -10.110669 -0.018928621 -10.112673 -33.963436 76.055489
970262500 -34.452648 83.105476 0.001210768 -10.281898 -0.028613809 -10.291967 -33.81361 72.826836
986818750 -34.213894 85.060646 0.0081508122 -10.45586 -0.033531435 -10.45828 -33.696636 71.002136
1003375000 -34.166214 80.850029 -0.0039818478 -10.633316 -0.035220418 -10.632349 -33.632141 70.479774
1019931250 -34.104382 77.274338 -0.015158406 -10.801842 -0.036833543 -10.810388 -33.444405 70.297752
1036487500 -34.030964 76.369476 -0.017654339 -10.976348 -0.03251449 -10.983426 -33.295959 71.02166
1053043750 -33.960217 73.540558 -0.027317539 -11.147274 -0.022783242 -11.156714 -33.134907 74.059662
1069600000 -33.831764 71.717773 -0.032118727 -11.310824 -0.021824716 -11.329865 -32.987793 74.804489
1086156250 -33.750648 71.476578 -0.030131662 -11.4808 -0.019589804 -11.49863 -32.837006 75.187897
1102712500 -33.589157 73.821037 -0.023895346 -11.665833 -0.031084888 -11.670034 -32.808434 71.506416
1119268750 -33.393925 76.648972 -0.014998415 -11.835315 -0.03459451 -11.841022 -32.722599 70.632591
1135825000 -33.177952 78.466324 -0.0078242719 -12.011331 -0.036808513 -12.017883 -32.557838 69.836853
1152381250 -33.074814 78.217087 -0.0079445876 -12.190852 -0.040527396 -12.187217 -32.473877 68.581833
1168937500 -33.098919 74.955528 -0.019568678 -12.354573 -0.041299276 -12.361078 -32.377861 68.355286
1185493750 -33.045307 74.070129 -0.023404313 -12.524869 -0.029735614 -12.535251 -32.177952 71.272346
1202050000 -32.971199 73.006485 -0.027189258 -12.694799 -0.015259728 -12.709539 -31.99803 74.404137
1218606250 -32.909931 70.363548 -0.034621421 -12.859094 -0.01113376 -12.885609 -31.854191 75.592918
1235162500 -32.783863 70.616302 -0.031788394 -13.039728 -0.021723751 -13.05383 -31.801254 72.653603
1251718750 -32.667622 71.470512 -0.028534425 -13.219645 -0.024472659 -13.225774 -31.753593 71.557755
1268275000 -32.535465 71.107788 -0.030104538 -13.388677 -0.036717668 -13.396248 -31.753769 68.798294
1284831250 -32.432484 71.094353 -0.029046932 -13.559347 -0.040479802 -13.573303 -31.644178 67.959984
1301387500 -32.353661 71.720108 -0.026192382 -13.735895 -0.042228792 -13.743106 -31.58276 67.090454
1317943750 -32.266422 71.644188 -0.02737519 -13.905344 -0.044319652 -13.915667 -31.544397 66.563049
1334500000 -32.165428 71.700607 -0.024415443 -14.080034 -0.042626388 -14.089467 -31.41898 67.103279
1351056250 -32.153427 70.699203 -0.027479813 -14.256417 -0.034212954 -14.261371 -31.289843 68.967926
1367612500 -32.081768 68.78727 -0.03549543 -14.426481 -0.033247698 -14.4364 -31.183748 69.081314
1384168750 -31.988167 68.003815 -0.038441397 -14.59341 -0.034666207 -14.614257 -31.061817 69.134941
1400725000 -31.862438 69.535477 -0.031951502 -14.765799 -0.035177335 -14.778793 -30.945217 69.021515
1417281250 -31.682856 71.618538 -0.02358664 -14.943474 -0.040097725 -14.949585 -30.9193 67.555687
1433837500 -31.558214 71.369904 -0.022348594 -15.117044 -0.043893505 -15.120887 -30.823919 66.827034
1450393750 -31.494936 73.009804 -0.017102147 -15.285115 -0.047759175 -15.28449 -30.745554 65.438217
1466950000 -31.398592 72.203453 -0.021104917 -15.448746 -0.047830276 -15.456901 -30.685802 65.064751
1483506250 -31.309883 69.802002 -0.028493954 -15.62086 -0.049016465 -15.641939 -30.550388 65.003067
1500062500 -31.297649 68.654427 -0.030861208 -15.79751 -0.045399204 -15.805681 -30.417175 65.71946
1516618750 -31.243004 66.843781 -0.039045226 -15.970696 -0.040307123 -15.97752 -30.365646 66.193382
1533175000 -31.154659 66.157875 -0.04110273 -16.135294 -0.039174337 -16.160452 -30.299282 66.504204
1549731250 -31.081547 66.829926 -0.036762852 -16.307926 -0.040005893 -16.336496 -30.185287 66.563339
1566287500 -30.799864 73.391861 -0.0088174697 -16.496183 -0.043566458 -16.499813 -30.152361 65.458893
1582843750 -30.656996 74.406586 -0.0026177778 -16.671272 -0.04464322 -16.676441 -30.119354 65.155968
1599400000 -30.69047 72.372353 -0.011800337 -16.839941 -0.051030718 -16.851236 -29.995014 63.948849
1615956250 -30.743654 68.501503 -0.030494388 -17.002081 -0.051595345 -17.009701 -29.947298 63.256104
1632512500 -30.683941 67.533005 -0.031969797 -17.150263 -0.048486579 -17.203924 -29.910635 63.48402
1649068750 -30.647219 66.859879 -0.033800628 -17.336536 -0.036262635 -17.395924 -29.725588 65.990265
1665625000 -30.610901 65.151695 -0.041131448 -17.51687 -0.032428935 -17.563778 -29.639936 66.58107
1682181250 -30.60627 64.395424 -0.042845849 -17.676748 -0.03072889 -17.734718 -29.584846 66.815086
1698737500 -30.47393 66.420334 -0.032195069 -17.869902 -0.040643837 -17.901237 -29.578865 64.957275
1715293750 -30.062643 76.186531 0.011216855 -18.056849 -0.045697886 -18.055815 -29.575279 63.521683
1731850000 -29.885378 76.470161 0.014141938 -18.235344 -0.045929298 -18.213024 -29.592592 63.046505
1748406250 -29.856115 75.500679 0.011281776 -18.413399 -0.048076648 -18.411402 -29.440567 62.890656
1764962500 -30.002806 72.876328 -0.0042466507 -18.573599 -0.054259565 -18.572508 -29.34701 61.523552
1781518750 -30.119968 66.547073 -0.03509517 -18.727184 -0.053732794 -18.733244 -29.334177 61.29612
1798075000 -30.110798 65.47361 -0.037016779 -18.887869 -0.042264707 -18.921761 -29.200682 63.53017
1814631250 -30.057693 64.698616 -0.037808955 -19.068829 -0.035522554 -19.094374 -29.060131 64.893509
1831187500 -29.988214 63.113361 -0.045479432 -19.245668 -0.032480836 -19.260525 -28.989119 65.143814
1847743750 -29.917986 62.667595 -0.047998119 -19.41836 -0.038781747 -19.435228 -28.972052 63.69286
1864300000 -29.711681 67.193108 -0.025408814 -19.591446 -0.041227553 -19.611364 -28.927212 62.916309
1880856250 -29.43416 70.744278 -0.0035101841 -19.782785 -0.048383195 -19.781254 -28.918995 61.455849
1897412500 -29.372339 71.871986 0.0036300356 -19.971098 -0.050972093 -19.949604 -28.900553 60.701687
1913968750 -29.378368 73.072762 0.0055909371 -20.128918 -0.05295739 -20.124718 -28.828756 60.300797
1930525000 -29.507635 66.50042 -0.028589791 -20.284151 -0.053921171 -20.302826 -28.782297 59.822636
1947081250 -29.557224 63.895123 -0.03736021 -20.442854 -0.049206451 -20.482965 -28.71427 60.716518
1963637500 -29.518684 63.155098 -0.039111558 -20.627892 -0.044902202 -20.656996 -28.610607 61.509762
1980193750 -29.478769 61.939339 -0.047137067 -20.813826 -0.041371569 -20.821383 -28.543617 61.542831
1996750000 -29.442261 61.67012 -0.049185749 -20.978077 -0.039541051 -21.012077 -28.495003 61.784779
2013306250 -29.281139 64.425011 -0.034450166 -21.156057 -0.047427017 -21.187696 -28.453609 60.818954
2029862500 -29.093102 67.232468 -0.017417895 -21.346029 -0.052785352 -21.341705 -28.427725 59.594467
2046418750 -29.084919 67.290962 -0.018234437 -21.523201 -0.050994374 -21.50963 -28.452578 59.502655
2062975000 -28.993948 68.503075 -0.013542742 -21.697863 -0.055501025 -21.704533 -28.394814 58.956245
2079531250 -29.069593 64.416084 -0.034836486 -21.854023 -0.058062658 -21.878187 -28.316799 58.656422
2096087500 -29.09693 62.613609 -0.042896185 -22.022879 -0.052939076 -22.042671 -28.264494 59.332073
2112643750 -29.054283 62.23415 -0.044756763 -22.190716 -0.050569896 -22.211365 -28.20153 59.749287
2129200000 -29.047228 61.000248 -0.049262345 -22.360567 -0.048010964 -22.383692 -28.110281 59.957691
2145756250 -29.014416 60.643166 -0.050873607 -22.554783 -0.045603964 -22.569761 -28.053432 59.933044
2162312500 -28.918617 61.740799 -0.047742177 -22.740641 -0.047413412 -22.760792 -28.003902 60.008671
2178868750 -28.688721 65.980324 -0.024870988 -22.90386 -0.058295812 -22.923891 -27.982376 58.663807
2195425000 -28.619587 66.20826 -0.020421961 -23.079264 -0.057117045 -23.0637 -27.997005 58.2929
2211981250 -28.552992 66.2136 -0.019680893 -23.260376 -0.059873786 -23.246113 -28.016335 57.742119
2228537500 -28.627388 63.397156 -0.03516173 -23.426716 -0.062280197 -23.424646 -27.931599 57.500256
2245093750 -28.686728 61.525703 -0.046766523 -23.599436 -0.058951937 -23.592707 -27.886553 57.695545
2261650000 -28.644926 61.201637 -0.051434673 -23.760056 -0.045158505 -23.796095 -27.707211 59.76223
2278206250 -28.653603 60.193981 -0.05416644 -23.912575 -0.048213653 -23.968618 -27.633425 60.104988
2294762500 -28.607374 60.081615 -0.052292369 -24.117607 -0.041797552 -24.116638 -27.49124 60.688316
2311318750 -28.445614 61.888954 -0.047174487 -24.312721 -0.04766304 -24.286516 -27.545034 59.306061
2327875000 -28.278219 64.047905 -0.035223711 -24.464973 -0.056014638 -24.488604 -27.533356 58.170586
2344431250 -28.205448 63.970119 -0.032472957 -24.635937 -0.063128121 -24.649773 -27.474174 57.476807
2360987500 -28.112204 64.589676 -0.029301181 -24.815439 -0.065418594 -24.792992 -27.517551 56.904976
2377543750 -28.022108 64.399544 -0.02921154 -24.976057 -0.066953011 -24.970911 -27.488029 56.506268
2394100000 -28.170328 60.817036 -0.047838755 -25.142807 -0.067951553 -25.150986 -27.403341 56.344383
2410656250 -28.155176 60.571095 -0.052090656 -25.343969 -0.051406372 -25.335615 -27.198914 58.673756
2427212500 -28.106091 59.83881 -0.060338773 -25.509384 -0.030109229 -25.523275 -26.918335 61.810715
2443768750 -28.112385 59.009338 -0.063678712 -25.663015 -0.025865402 -25.680923 -26.815985 62.448536
2460325000 -28.061327 58.849354 -0.06527888 -25.831388 -0.050587285 -25.836491 -26.985832 58.67313
2476881250 -27.888945 61.434074 -0.048500396 -26.001909 -0.060360357 -26.018843 -27.046621 57.16032
2493437500 -27.806664 61.819027 -0.04257923 -26.189917 -0.066896796 -26.191652 -27.004967 56.55328
2509993750 -27.767763 61.941654 -0.044483345 -26.367767 -0.069486432 -26.341726 -27.018797 55.891788
2526550000 -27.617977 63.186989 -0.036296971 -26.528107 -0.069997683 -26.52154 -27.030361 55.57864
2543106250 -27.724773 60.53376 -0.04977208 -26.699972 -0.073217981 -26.721802 -26.907305 55.542305
2559662500 -27.727949 60.029106 -0.057718121 -26.908001 -0.054499608 -26.882185 -26.666731 58.042969
2576218750 -27.711441 58.937752 -0.06881626 -27.044077 -0.043422751 -27.044321 -26.51112 59.280769
2592775000 -27.778337 58.356739 -0.066542566 -27.173084 -0.03321787 -27.230036 -26.356035 60.290409
2609331250 -27.713228 58.43446 -0.06424249 -27.37639 -0.039008286 -27.40547 -26.373924 59.410866
2625887500 -27.538912 59.766376 -0.058013588 -27.565996 -0.05259826 -27.577209 -26.46871 57.836887
2642443750 -27.421452 60.810658 -0.050303258 -27.734119 -0.071998559 -27.728949 -26.571789 55.598991
2659000000 -27.373016 60.978214 -0.050204743 -27.904278 -0.071110837 -27.881111 -26.559237 55.295841
2675556250 -27.299816 61.153896 -0.049044557 -28.070162 -0.073326729 -28.066351 -26.580696 54.694592
2692112500 -27.292833 60.23671 -0.051789496 -28.242302 -0.077920072 -28.258942 -26.500427 54.550064
2708668750 -27.331299 59.07682 -0.060085081 -28.430302 -0.076786362 -28.403524 -26.421755 54.658016
2725225000 -27.300657 58.401764 -0.067795083 -28.591509 -0.063166171 -28.580822 -26.280518 56.047447
2741781250 -27.30831 57.297066 -0.072653346 -28.734596 -0.059734371 -28.769045 -26.173214 56.570488
2758337500 -27.284309 57.053818 -0.072321214 -28.901844 -0.059623826 -28.930584 -26.092093 56.740925
2774893750 -27.196142 57.630871 -0.066252254 -29.072905 -0.058505587 -29.095407 -26.053505 56.566231
2791450000 -27.071783 58.752003 -0.056509446 -29.259972 -0.07225275 -29.26021 -26.161652 54.892517
2808006250 -27.011568 59.2472 -0.054318208 -29.449102 -0.074249402 -29.425976 -26.13476 54.342392
2824562500 -26.96472 59.247276 -0.056013051 -29.617514 -0.076483957 -29.600769 -26.140631 53.659855
2841118750 -26.91367 59.426811 -0.054881871 -29.790943 -0.0808044 -29.80335 -26.098557 53.357151
2857675000 -26.924063 58.535542 -0.062156569 -29.951807 -0.084077261 -29.95989 -26.011417 53.346767
2874231250 -26.934568 57.706638 -0.066168331 -30.103943 -0.05758566 -30.121965 -25.741413 55.868729
2890787500 -26.934431 56.880207 -0.069213122 -30.278954 -0.048209745 -30.309715 -25.602079 56.759453
2907343750 -26.897308 56.699364 -0.070026062 -30.450012 -0.047105875 -30.472179 -25.507359 57.01881
2923900000 -26.827105 57.171474 -0.065521322 -30.617649 -0.049538631 -30.634874 -25.545443 55.995171
2940456250 -26.659252 58.397068 -0.054950293 -30.822916 -0.06340766 -30.836615 -25.700949 54.236385
2957012500 -26.619125 58.246113 -0.059486452 -30.996082 -0.079093784 -31.0179 -25.673014 53.286385
2973568750 -26.567743 58.128269 -0.058631275 -31.150093 -0.086581737 -31.127321 -25.694553 52.188583
2990125000 -26.554373 57.649269 -0.058697302 -31.335505 -0.07995709 -31.300957 -25.710905 52.005341
3006681250 -26.560631 57.21146 -0.067387268 -31.515203 -0.081849501 -31.521252 -25.60528 52.085495
3023237500 -26.534033 56.712315 -0.071702413 -31.632168 -0.075000882 -31.673002 -25.424009 53.208294
3039793750 -26.588203 56.03112 -0.068427004 -31.79241 -0.056531496 -31.834126 -25.26656 54.585197
3056350000 -26.576929 55.51366 -0.07127399 -31.996056 -0.058068577 -32.027431 -25.256641 54.336082
3072906250 -26.507771 55.424507 -0.072796948 -32.184467 -0.06773454 -32.198006 -25.268852 53.466324
3089462500 -26.45166 55.483932 -0.073429085 -32.37299 -0.073704034 -32.357422 -25.340197 52.399353
3106018750 -26.414997 55.48098 -0.07918606 -32.537788 -0.078883372 -32.549282 -25.326225 51.845062
3122575000 -26.366879 55.504513 -0.077314772 -32.669827 -0.086286858 -32.709095 -25.282629 51.382469
3139131250 -26.296286 55.48925 -0.06970828 -32.858025 -0.086539499 -32.843578 -25.287781 50.834568
3155687500 -26.196058 56.314766 -0.067176647 -33.061253 -0.083503336 -33.037407 -25.265013 50.80489
3172243750 -26.145416 56.151226 -0.06962768 -33.192242 -0.078355245 -33.229557 -25.086128 51.726082
3188800000 -26.208639 54.953754 -0.072507866 -33.359886 -0.075928137 -33.377911 -25.02026 51.792042
3205356250 -26.186583 54.544834 -0.078874625 -33.564129 -0.071163654 -33.56876 -24.987629 51.838825
3221912500 -26.160421 54.36261 -0.082033977 -33.704899 -0.074505344 -33.784386 -24.946449 51.510448
3238468750 -26.082886 54.944851 -0.070727356 -33.889709 -0.083272204 -33.904922 -24.957935 50.831818
3255025000 -26.040703 55.196541 -0.075269841 -34.101192 -0.083038524 -34.055733 -24.977985 50.40213
