!Agilent Technologies,N5242A,MY49421564,A.09.80.20
!Agilent N5242A: A.09.80.20
!Date: Tuesday, November 08, 2016 23:48:24
!Correction: S33(Full 2 Port(3,4)) 
!S43(Full 2 Port(3,4)) 
!S34(Full 2 Port(3,4)) 
!S44(Full 2 Port(3,4)) 
!S2P File: Measurements: S33, S43, S34, S44:
# Hz S  dB   R 50
10000000 -54.725517 -151.67876 0.0098921917 0.007184451 -0.0012982102 -0.032092609 -53.574337 -51.801758
26556250 -49.812649 162.71938 0.022690417 -0.22433564 0.0018183895 -0.29250425 -58.029781 112.55618
43112500 -50.6763 159.58333 0.024365479 -0.42606544 0.0042361962 -0.50902355 -60.531807 102.464
59668750 -52.198933 151.4584 0.017910566 -0.61827725 -0.00040515306 -0.61277366 -57.901402 109.58179
76225000 -52.446301 130.88603 0.011227199 -0.78729635 0.00016239889 -0.78625274 -54.016956 108.51569
92781250 -49.692463 138.71973 0.020546868 -0.98087037 -0.0022164911 -0.97395903 -52.483154 94.607643
109337500 -50.234631 128.82524 0.013532507 -1.1609073 -0.0025000649 -1.1558367 -52.13245 95.510178
125893750 -49.965183 115.79218 0.0074482663 -1.3395336 0.0050983122 -1.3405424 -49.421326 114.08058
142450000 -48.356243 123.88261 0.013540978 -1.5128857 -0.0051409914 -1.5166342 -49.238174 91.865173
159006250 -49.160545 104.70995 0.0040933411 -1.6959158 0.000760008 -1.6972454 -48.761913 97.153252
175562500 -45.651245 128.73569 0.023246439 -1.8815423 -0.0092800306 -1.8656359 -48.232456 84.887741
192118750 -47.440098 101.0248 0.0028047825 -2.0510886 0.0008495184 -2.0491738 -46.663151 101.35364
208675000 -46.909637 93.119049 -0.0006026607 -2.2303622 0.0031278776 -2.2203662 -45.964081 103.5914
225231250 -45.029697 117.29433 0.019397158 -2.4104776 -0.0101051 -2.3889112 -46.099556 86.412819
241787500 -42.374691 132.23227 0.041705299 -2.5879402 -0.01504857 -2.5743876 -45.04155 83.702034
258343750 -42.879768 126.95665 0.037065148 -2.7706616 -0.011669401 -2.75699 -44.646198 80.024635
274900000 -44.272671 103.13055 0.011288948 -2.9552763 -0.0084685301 -2.9351861 -44.122952 83.891769
291456250 -44.097336 98.324005 0.0061789867 -3.1203284 0.0017655366 -3.1178782 -43.519463 94.917816
308012500 -43.845222 91.921623 -0.0013868478 -3.3005452 0.0018099592 -3.2933435 -43.032528 92.575737
324568750 -43.48991 89.625114 -0.004966788 -3.4653015 -0.0010440403 -3.4803848 -42.97702 91.781898
341125000 -42.978935 88.445885 -0.0045549134 -3.646049 -0.010247848 -3.6441357 -42.39249 85.576721
357681250 -41.973999 107.00655 0.016141569 -3.8264666 -0.013750704 -3.8085051 -42.09742 81.34111
374237500 -41.537327 106.56594 0.016288467 -3.9968381 -0.016158659 -3.9830074 -41.901814 82.035904
390793750 -40.868629 110.80885 0.024285465 -4.1649065 -0.018483672 -4.1644778 -41.242123 80.471931
407350000 -40.61623 110.80776 0.028965082 -4.3311863 -0.018558132 -4.3377881 -40.730587 77.529999
423906250 -40.952 93.623764 0.0040400731 -4.5108109 -0.017024163 -4.5072303 -40.534092 78.701454
440462500 -40.831234 88.744362 -0.0010998657 -4.6879191 0.019447112 -4.6890244 -39.506493 102.38873
457018750 -40.567516 85.624878 -0.0073465263 -4.8673153 0.031559795 -4.867754 -38.648621 107.88779
473575000 -40.300495 84.61203 -0.010688837 -5.0380611 0.020201273 -5.0411568 -38.927143 101.25996
490131250 -40.099785 83.524628 -0.011027699 -5.2092075 1.3276729e-005 -5.2132173 -39.161545 90.468002
506687500 -39.215031 103.37202 0.022906 -5.3998895 -0.013032671 -5.3878989 -39.111279 81.504639
523243750 -38.593899 107.61137 0.033031285 -5.568954 -0.017225917 -5.5605516 -38.979565 79.118263
539800000 -38.292118 107.43057 0.034002941 -5.7460155 -0.019913318 -5.7367826 -38.750759 78.099564
556356250 -38.487984 102.05861 0.024626032 -5.9160972 -0.022147205 -5.9113617 -38.373981 77.08445
572912500 -38.731678 87.473373 -0.0011165484 -6.0898719 -0.010744377 -6.0850978 -38.136349 82.701263
589468750 -38.533394 84.464592 -0.006036181 -6.2628274 -0.0010932216 -6.2678566 -37.830132 87.738037
606025000 -38.452862 80.447174 -0.013194787 -6.4391475 -0.001834214 -6.4437518 -37.508808 87.297432
622581250 -38.196503 78.901985 -0.015277032 -6.6105418 -0.0030319516 -6.6279087 -37.375126 85.877632
639137500 -38.043587 80.165863 -0.011574588 -6.7988734 -0.008469943 -6.7967863 -37.299034 83.194633
655693750 -37.8615 84.581017 -0.0036482411 -6.9728222 -0.018034112 -6.9751024 -37.103458 78.305611
672250000 -37.470459 88.938385 0.0053832978 -7.1370111 -0.020562891 -7.1431913 -36.957619 77.076378
688806250 -37.182114 89.015038 0.0074637872 -7.3239222 -0.024465412 -7.3193316 -36.788216 75.910751
705362500 -37.153664 85.727859 -0.00012400505 -7.4930139 -0.026750254 -7.4926219 -36.508881 74.773232
721918750 -36.989548 81.940239 -0.0091517633 -7.6722593 -0.02517223 -7.6632819 -36.313572 75.192581
738475000 -36.787552 80.567162 -0.011079445 -7.8400235 -0.0076605678 -7.8460093 -36.028095 82.930573
755031250 -36.705143 77.528831 -0.017068543 -8.0118542 -0.0055412655 -8.0161552 -35.769825 84.316963
771587500 -36.48444 76.969765 -0.019094756 -8.1917248 -0.0032511903 -8.1900816 -35.563698 84.579666
788143750 -36.348061 76.643814 -0.018584326 -8.3588104 -0.0054713711 -8.3663664 -35.46595 83.370865
804700000 -36.15115 81.403275 -0.0079207914 -8.5345573 -0.021522399 -8.5434752 -35.416088 77.339523
821256250 -35.84549 85.817673 0.0020688148 -8.704422 -0.024858378 -8.7150354 -35.208344 75.659416
837812500 -35.548218 88.120804 0.010355644 -8.8867054 -0.029280145 -8.8699846 -35.258022 73.434166
854368750 -35.591103 81.421272 -0.0076235416 -9.0586758 -0.03110927 -9.056406 -35.069458 73.730164
870925000 -35.446522 79.451012 -0.013012828 -9.2336388 -0.03146518 -9.2361412 -34.777706 73.381989
887481250 -35.347347 79.068802 -0.014025782 -9.4022226 -0.017161706 -9.413023 -34.62793 77.80114
904037500 -35.238724 77.483398 -0.017916352 -9.5814514 -0.0063759447 -9.5913057 -34.375835 81.898598
920593750 -35.046234 75.378487 -0.02516813 -9.7560844 -0.0071641812 -9.7539434 -34.209488 81.322639
937150000 -34.96217 74.639984 -0.024697365 -9.9159012 -0.0039261291 -9.931509 -34.051498 81.844498
953706250 -34.69796 82.267075 -0.0031147012 -10.110545 -0.017818566 -10.098949 -34.044846 78.077461
970262500 -34.439442 84.853027 0.0043997155 -10.279214 -0.027286418 -10.277933 -33.921093 74.610886
986818750 -34.183109 86.767006 0.010760172 -10.448599 -0.03265861 -10.443835 -33.826698 72.652679
1003375000 -34.146564 82.562965 -0.0026236998 -10.607928 -0.034691788 -10.622263 -33.751255 72.296867
1019931250 -34.131588 78.756561 -0.01455204 -10.780182 -0.037157379 -10.797876 -33.545059 71.899384
1036487500 -34.055386 77.812607 -0.017039446 -10.954215 -0.033534642 -10.965561 -33.423145 72.609894
1053043750 -33.994671 75.106964 -0.026791241 -11.125304 -0.023097008 -11.14742 -33.238541 75.614082
1069600000 -33.849682 73.131516 -0.032304592 -11.289994 -0.022409027 -11.317018 -33.074028 76.274101
1086156250 -33.763565 72.940475 -0.029711148 -11.459952 -0.020470772 -11.482862 -32.918274 76.642288
1102712500 -33.601101 75.299896 -0.022858843 -11.639699 -0.031275574 -11.651646 -32.921875 73.079071
1119268750 -33.408661 78.15744 -0.014881362 -11.811439 -0.034372073 -11.828079 -32.850178 72.17215
1135825000 -33.192856 79.958595 -0.0075206547 -11.989863 -0.036786731 -12.001451 -32.674076 71.48864
1152381250 -33.094193 79.514259 -0.0072657424 -12.170856 -0.040100299 -12.171241 -32.603889 70.114761
1168937500 -33.118755 76.282074 -0.01936971 -12.333097 -0.041789185 -12.347061 -32.498913 69.707771
1185493750 -33.060207 75.342659 -0.022508655 -12.503005 -0.028673558 -12.523845 -32.29969 72.68158
1202050000 -32.99255 74.199203 -0.02614397 -12.678604 -0.015894903 -12.695478 -32.098808 75.974152
1218606250 -32.940353 71.628304 -0.032736558 -12.837429 -0.011707733 -12.867696 -31.942642 77.184547
1235162500 -32.814247 72.027405 -0.031063877 -13.021631 -0.020815907 -13.039227 -31.885067 74.086266
1251718750 -32.70153 72.943352 -0.028799398 -13.205829 -0.024496924 -13.21392 -31.842758 73.028053
1268275000 -32.548908 72.543785 -0.0293414 -13.370227 -0.036199391 -13.378781 -31.868011 70.201759
1284831250 -32.458157 72.393349 -0.028404782 -13.540786 -0.039517377 -13.555863 -31.768881 69.373245
1301387500 -32.392628 72.959404 -0.025950849 -13.711781 -0.041941173 -13.734885 -31.707563 68.423706
1317943750 -32.294666 72.755608 -0.025664685 -13.889049 -0.044287492 -13.908999 -31.671124 67.790039
1334500000 -32.199028 72.850174 -0.024048729 -14.056974 -0.04258316 -14.075342 -31.547371 68.371269
1351056250 -32.17083 71.854576 -0.026921425 -14.231748 -0.034230202 -14.247486 -31.396095 70.201881
1367612500 -32.100571 70.097008 -0.034615934 -14.408602 -0.03321977 -14.422381 -31.289839 70.386436
1384168750 -32.004887 69.227074 -0.038252454 -14.57342 -0.035055567 -14.605804 -31.156946 70.445709
1400725000 -31.887341 70.906113 -0.031779554 -14.744953 -0.034803752 -14.765356 -31.049158 70.387535
1417281250 -31.689287 72.788193 -0.022950782 -14.918682 -0.039149858 -14.942745 -31.041536 68.841591
1433837500 -31.57539 72.529358 -0.021915734 -15.102926 -0.04396883 -15.109069 -30.956917 67.962006
1450393750 -31.517443 74.097733 -0.016906086 -15.274177 -0.046958029 -15.275691 -30.858717 66.559082
1466950000 -31.41378 73.170036 -0.020958468 -15.433135 -0.047292057 -15.449884 -30.790482 66.222824
1483506250 -31.333771 70.894218 -0.027813263 -15.60658 -0.049302109 -15.638394 -30.648724 66.127945
1500062500 -31.307812 69.786301 -0.029638972 -15.777341 -0.045153312 -15.801919 -30.528353 66.860619
1516618750 -31.267395 68.096077 -0.038112689 -15.958064 -0.039946567 -15.970646 -30.474192 67.407066
1533175000 -31.191351 67.354225 -0.039963547 -16.119162 -0.038402714 -16.155117 -30.411804 67.440117
1549731250 -31.103451 67.933807 -0.035805989 -16.290764 -0.039861407 -16.33493 -30.302065 67.796028
1566287500 -30.830259 74.419983 -0.0080435062 -16.484251 -0.043968625 -16.491289 -30.275896 66.563736
1582843750 -30.666386 75.428802 -0.0018596171 -16.659344 -0.044953208 -16.671278 -30.255262 66.230362
1599400000 -30.703175 73.390602 -0.011120708 -16.830021 -0.050088663 -16.846973 -30.118439 65.066132
1615956250 -30.751711 69.529823 -0.029102724 -16.98461 -0.051038112 -17.006752 -30.057257 64.254166
1632512500 -30.698032 68.666374 -0.030631568 -17.137777 -0.048117228 -17.182278 -30.002214 64.559273
1649068750 -30.669672 67.981926 -0.032724235 -17.324787 -0.036280893 -17.366093 -29.841105 67.171501
1665625000 -30.638428 66.257607 -0.039481279 -17.500433 -0.0321831 -17.542864 -29.748812 67.807999
1682181250 -30.638134 65.356575 -0.041857734 -17.672199 -0.029310571 -17.71801 -29.696518 67.942963
1698737500 -30.505472 67.463394 -0.031740978 -17.851536 -0.039703589 -17.887911 -29.717546 65.97464
1715293750 -30.061491 77.13961 0.011912025 -18.051779 -0.044104636 -18.045965 -29.702799 64.421982
1731850000 -29.87571 77.405266 0.01561989 -18.220316 -0.044218794 -18.20961 -29.715057 64.019318
1748406250 -29.839916 76.577377 0.012834292 -18.400074 -0.048106637 -18.404839 -29.538214 63.973576
1764962500 -29.992374 73.887566 -0.003550407 -18.561604 -0.053862732 -18.571753 -29.454912 62.631195
1781518750 -30.141321 67.490677 -0.033818275 -18.717545 -0.053319383 -18.724794 -29.433146 62.318409
1798075000 -30.119381 66.470711 -0.036270548 -18.874388 -0.042907596 -18.915981 -29.301802 64.593803
1814631250 -30.077631 65.58194 -0.036844686 -19.056675 -0.035591945 -19.087116 -29.169289 65.977974
1831187500 -30.036911 64.097862 -0.0443842 -19.236261 -0.032913949 -19.259789 -29.095045 66.040123
1847743750 -29.948374 63.630615 -0.046641078 -19.408005 -0.038697619 -19.429058 -29.092514 64.574181
1864300000 -29.722727 68.195526 -0.023789663 -19.579985 -0.040161181 -19.610529 -29.037851 63.86919
1880856250 -29.440374 71.709785 -0.0015974788 -19.772545 -0.048033193 -19.774696 -29.041763 62.351738
1897412500 -29.373098 72.789536 0.0055488083 -19.966522 -0.050905947 -19.940062 -29.001509 61.644836
1913968750 -29.364347 74.037987 0.0068885307 -20.113205 -0.052220605 -20.120094 -28.941608 61.322128
1930525000 -29.534311 67.384727 -0.026461845 -20.275969 -0.053343456 -20.295666 -28.887312 60.838974
1947081250 -29.570227 64.691261 -0.035780404 -20.4361 -0.049274053 -20.478483 -28.831846 61.650585
1963637500 -29.55205 64.041336 -0.038352981 -20.617065 -0.043878675 -20.65193 -28.734921 62.32254
1980193750 -29.501585 62.798496 -0.044678777 -20.807566 -0.041707914 -20.818048 -28.659138 62.382652
1996750000 -29.460817 62.539612 -0.046981525 -20.974016 -0.039396103 -21.011351 -28.601822 62.619648
2013306250 -29.293102 65.357597 -0.033444099 -21.151871 -0.045873512 -21.178328 -28.552494 61.695473
2029862500 -29.097672 68.188087 -0.016168643 -21.338037 -0.051999941 -21.335451 -28.535471 60.494999
2046418750 -29.093807 68.228485 -0.016848227 -21.51639 -0.049882766 -21.493597 -28.562862 60.510048
2062975000 -29.012512 69.452538 -0.011747071 -21.685642 -0.056093488 -21.694544 -28.519503 59.867531
2079531250 -29.081987 65.25351 -0.032800421 -21.84074 -0.057591446 -21.864521 -28.440638 59.577713
2096087500 -29.124107 63.417038 -0.041905083 -22.013771 -0.052998465 -22.035917 -28.384789 60.146053
2112643750 -29.078947 63.090294 -0.042970117 -22.186956 -0.050363328 -22.201267 -28.311115 60.502262
2129200000 -29.060066 61.815495 -0.047190089 -22.35417 -0.047365975 -22.37668 -28.220188 60.712357
2145756250 -29.025934 61.498764 -0.049637802 -22.548412 -0.044948317 -22.56632 -28.154091 60.735886
2162312500 -28.92848 62.627747 -0.045769695 -22.735426 -0.046830818 -22.753044 -28.085297 60.961678
2178868750 -28.695786 66.853378 -0.023301994 -22.893801 -0.058076464 -22.918432 -28.093914 59.542019
2195425000 -28.629103 67.046692 -0.018780746 -23.065069 -0.056328919 -23.053358 -28.11898 59.178032
2211981250 -28.564878 67.086861 -0.017542429 -23.253742 -0.059235245 -23.236364 -28.136362 58.584644
2228537500 -28.651062 64.153473 -0.03394001 -23.423962 -0.061576538 -23.415339 -28.06146 58.21653
2245093750 -28.698874 62.37149 -0.045229547 -23.594858 -0.05765 -23.58946 -28.000477 58.370457
2261650000 -28.658133 61.954556 -0.049447846 -23.756298 -0.044432793 -23.788523 -27.812778 60.626469
2278206250 -28.670717 60.932468 -0.053202126 -23.902208 -0.046931688 -23.959076 -27.728882 60.89716
2294762500 -28.620268 60.917625 -0.051071022 -24.111624 -0.040511046 -24.105646 -27.5919 61.508968
2311318750 -28.455122 62.786308 -0.046288159 -24.30624 -0.046939746 -24.276033 -27.627958 60.051563
2327875000 -28.302467 64.86644 -0.034214549 -24.457315 -0.055888131 -24.478086 -27.644377 59.048893
2344431250 -28.211494 64.706108 -0.031230748 -24.624109 -0.062097501 -24.643301 -27.595205 58.274281
2360987500 -28.116314 65.376961 -0.02769912 -24.81065 -0.06501551 -24.785141 -27.638735 57.607899
2377543750 -28.024412 65.08802 -0.028397849 -24.970903 -0.067139819 -24.964937 -27.606462 57.190487
2394100000 -28.184368 61.494564 -0.047419827 -25.139845 -0.067842208 -25.137827 -27.509661 57.010025
2410656250 -28.178797 61.358192 -0.051948305 -25.336134 -0.051881958 -25.323391 -27.304541 59.45554
2427212500 -28.123623 60.650517 -0.05970446 -25.50374 -0.030179307 -25.512005 -27.011618 62.647583
2443768750 -28.125486 59.857792 -0.06296315 -25.661869 -0.025656275 -25.668655 -26.912409 63.262325
2460325000 -28.071699 59.667152 -0.064479455 -25.829489 -0.04957867 -25.832228 -27.093637 59.413979
2476881250 -27.900011 62.174686 -0.047444578 -25.997036 -0.060331989 -26.002993 -27.166706 57.994797
2493437500 -27.812437 62.61272 -0.041040618 -26.181154 -0.066616349 -26.178654 -27.119007 57.282696
2509993750 -27.773315 62.683727 -0.042977881 -26.364006 -0.069242932 -26.326883 -27.135994 56.536251
2526550000 -27.625549 63.86557 -0.035282712 -26.522276 -0.070541225 -26.517069 -27.140648 56.273731
2543106250 -27.731876 61.197956 -0.048316278 -26.692104 -0.073898919 -26.707209 -27.013788 56.265694
2559662500 -27.743849 60.788601 -0.056875806 -26.901791 -0.054662392 -26.872412 -26.764252 58.775459
2576218750 -27.728811 59.662106 -0.067937791 -27.038015 -0.042728946 -27.038536 -26.596352 59.957211
2592775000 -27.781584 59.076416 -0.065797918 -27.167274 -0.03203062 -27.226362 -26.446648 60.97905
2609331250 -27.729101 59.128967 -0.062937155 -27.374615 -0.038743965 -27.394773 -26.468569 60.058208
2625887500 -27.546759 60.46912 -0.057512198 -27.556477 -0.053820539 -27.563366 -26.577278 58.518505
2642443750 -27.427641 61.510178 -0.04942292 -27.726242 -0.071716599 -27.72481 -26.670238 56.270058
2659000000 -27.384945 61.642982 -0.049112562 -27.89657 -0.071704872 -27.867359 -26.667892 55.956142
2675556250 -27.300329 61.846127 -0.048338346 -28.059839 -0.074004963 -28.05809 -26.689442 55.359509
2692112500 -27.295473 60.871212 -0.05013847 -28.237263 -0.078436948 -28.251287 -26.61039 55.202778
2708668750 -27.349388 59.726051 -0.059245467 -28.426048 -0.077110872 -28.389858 -26.537251 55.299061
2725225000 -27.301615 59.014366 -0.067093179 -28.582663 -0.063863963 -28.571243 -26.376276 56.639446
2741781250 -27.321096 58.007767 -0.072182104 -28.725161 -0.061015181 -28.756268 -26.278744 57.26178
2758337500 -27.287592 57.690887 -0.070876829 -28.899124 -0.059990548 -28.927801 -26.198664 57.346786
2774893750 -27.2038 58.303288 -0.065645032 -29.06448 -0.058384527 -29.086979 -26.162678 57.239445
2791450000 -27.069948 59.409267 -0.056303542 -29.254131 -0.072425596 -29.25186 -26.260782 55.592648
2808006250 -27.016237 59.88731 -0.053931788 -29.441992 -0.07444194 -29.419039 -26.233179 54.952652
2824562500 -26.972073 59.889366 -0.05629991 -29.606375 -0.076707467 -29.594639 -26.241692 54.271248
2841118750 -26.920832 60.059978 -0.05412557 -29.779379 -0.081659034 -29.800331 -26.205389 54.00053
2857675000 -26.930695 59.103786 -0.063043453 -29.944735 -0.084292874 -29.952665 -26.115971 53.953518
2874231250 -26.931808 58.375374 -0.06577722 -30.100483 -0.05834496 -30.112488 -25.833902 56.456738
2890787500 -26.941174 57.535316 -0.069168404 -30.27356 -0.049185876 -30.302006 -25.701113 57.376091
2907343750 -26.897339 57.364349 -0.06945271 -30.44558 -0.048554957 -30.465256 -25.60219 57.630623
2923900000 -26.817369 57.762939 -0.064640023 -30.614086 -0.049085125 -30.629301 -25.622736 56.5093
2940456250 -26.660971 58.999809 -0.053814262 -30.817749 -0.063970707 -30.830675 -25.790655 54.784744
2957012500 -26.617065 58.86792 -0.058751047 -30.992226 -0.080984674 -31.017057 -25.773039 53.958
2973568750 -26.569643 58.667282 -0.058887769 -31.14488 -0.087024227 -31.123322 -25.779053 52.779282
2990125000 -26.561129 58.209045 -0.058578849 -31.330574 -0.080392621 -31.294561 -25.790995 52.513351
3006681250 -26.568644 57.784645 -0.068979554 -31.499624 -0.082701162 -31.51125 -25.697769 52.657333
3023237500 -26.532961 57.290558 -0.072490737 -31.618677 -0.07524208 -31.673962 -25.517611 53.784256
3039793750 -26.573374 56.55899 -0.069215253 -31.782352 -0.056823172 -31.833921 -25.351372 55.117771
3056350000 -26.577965 55.993549 -0.071493179 -31.982422 -0.059358224 -32.020908 -25.345675 54.836529
3072906250 -26.505981 55.987312 -0.073391587 -32.177578 -0.06871888 -32.195454 -25.366062 54.037403
3089462500 -26.454054 56.102146 -0.0745207 -32.360283 -0.073695958 -32.358128 -25.423212 52.847706
3106018750 -26.421362 55.999088 -0.079903893 -32.531231 -0.079384573 -32.548904 -25.426579 52.383171
3122575000 -26.360571 56.018379 -0.078739822 -32.656925 -0.087935448 -32.714703 -25.379063 51.928413
3139131250 -26.300138 56.003307 -0.071010552 -32.851101 -0.087596819 -32.842819 -25.375986 51.308727
3155687500 -26.193079 56.850277 -0.068630546 -33.049095 -0.083631217 -33.037659 -25.358282 51.328022
3172243750 -26.145298 56.714405 -0.070968926 -33.185715 -0.078059755 -33.2313 -25.177898 52.272369
3188800000 -26.199785 55.423004 -0.074154757 -33.355412 -0.076419853 -33.375725 -25.112095 52.330524
3205356250 -26.196663 55.125526 -0.079971872 -33.535961 -0.07179001 -33.541351 -25.079628 52.300617
3221912500 -26.157972 54.847218 -0.083298966 -33.681587 -0.075713865 -33.767834 -25.050327 52.117901
3238468750 -26.088778 55.413406 -0.071343467 -33.861137 -0.084008701 -33.883446 -25.055582 51.400703
3255025000 -26.048973 55.685295 -0.07736057 -34.074665 -0.084810592 -34.037712 -25.068497 50.912327
